# HZ S RI R 50
1000000 -0.00032104948846788713 0.0005572004274694896 0.04668809403844512 -0.0037998051077451785 0 0 0 0
2000000 0.00027864286315491024 -0.00011080636874856831 0.04783537383519086 -0.005289398615904333 0 0 0 0
3000000 -0.00020021819100907986 0.0008296675882876848 0.047514815432794205 -0.008216907590214833 0 0 0 0
4000000 -1.3228736848319629e-05 0.0012685869708850682 0.04689349447406237 -0.010997322115917151 0 0 0 0
5000000 0.00010350469464659577 0.001376134214062615 0.045997810742440186 -0.013661773898332523 0 0 0 0
6000000 0.00012546823103835574 0.002607140777751257 0.04501803853827554 -0.016257244120886104 0 0 0 0
7000000 0.0002575995931854714 0.0017406420393624752 0.043921135882322146 -0.01871410675891555 0 0 0 0
8000000 0.00023380741524201454 0.0023381549829503473 0.042770268368803196 -0.021114058438794204 0 0 0 0
9000000 0.0003275993090537552 0.0023588101621736103 0.04140164772384396 -0.02343449599048679 0 0 0 0
10000000 0.00012223808085854267 0.002567247143548028 0.03994068991710118 -0.025653209701872154 0 0 0 0
11000000 0.00010245843592392287 0.0026781235831067254 0.03841316429346618 -0.027779420576260733 0 0 0 0
12000000 0.0006344148430150427 0.0032449670654357797 0.03674553518041218 -0.029940233379061786 0 0 0 0
13000000 0.00022021508878837667 0.0033582133698987875 0.035091301970747744 -0.03192317266441537 0 0 0 0
14000000 0.0005233909684833876 0.003261509556285072 0.033127897162488575 -0.03383050974111312 0 0 0 0
15000000 0.00078205525541785 0.0036036200866187136 0.031132438686556217 -0.035522034887281714 0 0 0 0
16000000 0.0010214604112736272 0.0035781273545196857 0.02898870295263865 -0.037264986969729255 0 0 0 0
17000000 0.00039456808291359546 0.004349252339058323 0.02684023832943147 -0.038754002993748086 0 0 0 0
18000000 0.001044334830259571 0.003996913869219889 0.024547571317898875 -0.04020151092348893 0 0 0 0
19000000 0.0011051653743879548 0.004969135481604868 0.022143238196106037 -0.04151818718407216 0 0 0 0
20000000 0.0008861661321981676 0.004479160400790789 0.019746373558488645 -0.042604933159967336 0 0 0 0
21000000 0.0009058036366620813 0.005220865714537999 0.017215015315464877 -0.04356903950232075 0 0 0 0
22000000 0.0017992053669117715 0.0048819183240393655 0.01467594669397102 -0.044322117725832354 0 0 0 0
23000000 0.0006506373207832526 0.005752581813307551 0.012008236323145844 -0.04503473520555447 0 0 0 0
24000000 0.0015039964196820043 0.0058441746038797385 0.009398550341910497 -0.04552909270804493 0 0 0 0
25000000 0.001027940882538955 0.005685142052511506 0.006861240463359248 -0.04588314970637233 0 0 0 0
26000000 0.0012275393598271285 0.005820445811371723 0.004176681144261894 -0.04614294473241279 0 0 0 0
27000000 0.0007779112031039586 0.006328555586216835 0.0015680578581093805 -0.046077747634664754 0 0 0 0
28000000 0.0011210765981819412 0.006445222651670385 -0.0011280873345546236 -0.04597761205259495 0 0 0 0
29000000 0.0016457026251365295 0.006678081942107468 -0.003640434535573123 -0.04573761599032407 0 0 0 0
30000000 0.0016051192112430256 0.006535219182439289 -0.006322673619244318 -0.04528609169786049 0 0 0 0
31000000 0.0014433255270578172 0.007237336608094458 -0.008772844281465157 -0.044758405619019746 0 0 0 0
32000000 0.001240190323663763 0.007458800930207786 -0.011335324656094605 -0.043937716024087276 0 0 0 0
33000000 0.0014561906373757193 0.00757954354739595 -0.013651806704483299 -0.04317255102083954 0 0 0 0
34000000 0.0014355863949589939 0.0077547638094132895 -0.01603712141296723 -0.04212423382030225 0 0 0 0
35000000 0.0016671176147213735 0.00793080989419576 -0.018355171540537785 -0.041028972071677924 0 0 0 0
36000000 0.0018154052597811109 0.008063337463343765 -0.020586677252932548 -0.039852253492816035 0 0 0 0
37000000 0.0019271829530517152 0.008060130426121501 -0.022713766907284296 -0.03847853513600813 0 0 0 0
38000000 0.002340338981591528 0.008401299258440225 -0.024761504191263585 -0.03696707261642962 0 0 0 0
39000000 0.001821482526164616 0.008660335788022274 -0.026686675076944444 -0.03534574510307902 0 0 0 0
40000000 0.0023725418372700217 0.009003075986694422 -0.02853330616253638 -0.03364152844737197 0 0 0 0
41000000 0.0024478518972267578 0.009120757861942599 -0.030305057408516772 -0.03199853357555025 0 0 0 0
42000000 0.002003860847127015 0.009772515479168497 -0.031894006264469345 -0.03008053198645438 0 0 0 0
43000000 0.0017526143289814432 0.009102417842427862 -0.033299549232711105 -0.02805626701446638 0 0 0 0
44000000 0.0018808561117425245 0.009968280114294242 -0.03464861827459504 -0.026155217621901712 0 0 0 0
45000000 0.0019393451404839512 0.009969456663537265 -0.036028528610186225 -0.023979865851453605 0 0 0 0
46000000 0.0019056287891045655 0.009806098355092042 -0.03701984302471956 -0.021872283310054825 0 0 0 0
47000000 0.002315406830617434 0.009945000216230257 -0.03808842421434928 -0.019681014769806097 0 0 0 0
48000000 0.0025212892983350085 0.010403090359347954 -0.038921097772117254 -0.017428960774534045 0 0 0 0
49000000 0.0025338092967215095 0.010569060075610624 -0.03961342819022752 -0.015306666639649351 0 0 0 0
50000000 0.0027539260220287077 0.011166701542544065 -0.04022233633388805 -0.013027157976085906 0 0 0 0
51000000 0.0026960807552176306 0.011194871231208933 -0.04072105964573165 -0.010607295698345837 0 0 0 0
52000000 0.0029290505998194986 0.010862943635335586 -0.0411022819924233 -0.008418983315506442 0 0 0 0
53000000 0.0027153989159362795 0.011541312071094805 -0.041247424036590846 -0.006151380153534116 0 0 0 0
54000000 0.003048432912215935 0.011443506411760708 -0.041451519398537646 -0.003781350387357082 0 0 0 0
55000000 0.0027500038445696434 0.011991372896464065 -0.04131625365571088 -0.0015484233168153883 0 0 0 0
56000000 0.0028977244941861126 0.012533793657594697 -0.041203445792629106 0.0007774783974794894 0 0 0 0
57000000 0.0030754615766635874 0.012386728557727905 -0.04077449296424084 0.002956358311509568 0 0 0 0
58000000 0.002841941336668491 0.01250617628129908 -0.04036701922442094 0.005249810857260818 0 0 0 0
59000000 0.0028056673662520907 0.012658029958727493 -0.039877786637396544 0.007389463551374262 0 0 0 0
60000000 0.0032639481530215135 0.013404750709198504 -0.03908364182772263 0.009498539852931814 0 0 0 0
61000000 0.00340870112194407 0.01338854059465509 -0.03844136953804678 0.01160311186310233 0 0 0 0
62000000 0.0035546786503288406 0.013644123604819768 -0.0374489136937741 0.013607622314093027 0 0 0 0
63000000 0.003440087706200199 0.013885668127601085 -0.036641836777452585 0.015548275827089524 0 0 0 0
64000000 0.003194198160941474 0.014012836961245992 -0.03538810565898431 0.017421525506819805 0 0 0 0
65000000 0.003198140482084365 0.014193686723434355 -0.034244198935095685 0.01919199519494022 0 0 0 0
66000000 0.00399415000429061 0.01437799935473174 -0.03303204509830159 0.020947114148849907 0 0 0 0
67000000 0.0032359612602004375 0.01474325331067479 -0.03161402226301185 0.022642311987703268 0 0 0 0
68000000 0.003864827010534739 0.014638401696425425 -0.030191858269774715 0.024157652166926422 0 0 0 0
69000000 0.0040471008837855045 0.015237461940199823 -0.0287343913169655 0.025657221662069365 0 0 0 0
70000000 0.004175504321660824 0.015426582427999694 -0.02713543740569569 0.027024831518771348 0 0 0 0
71000000 0.0037327607934566566 0.015183895059055593 -0.025391860335539616 0.02831865899592595 0 0 0 0
72000000 0.003917815185603018 0.015707120055077295 -0.02375420940360122 0.02949698840496295 0 0 0 0
73000000 0.00366815740772752 0.01622468355426725 -0.022094234175137204 0.0305536942115113 0 0 0 0
74000000 0.0042859595193042105 0.015094319536703716 -0.020114266242182897 0.031444054649054885 0 0 0 0
75000000 0.00441277648570158 0.016242949676624468 -0.01842006920758512 0.03242532168022531 0 0 0 0
76000000 0.004442014107997129 0.016309330164561115 -0.016449260645318212 0.033190879384019205 0 0 0 0
77000000 0.004391277027290474 0.016771333389390214 -0.014664844536635796 0.03382210693715724 0 0 0 0
78000000 0.004470614838485863 0.016945983749055975 -0.01268805161905862 0.034419994000014754 0 0 0 0
79000000 0.00475443045071481 0.017507325115155268 -0.010805055658362416 0.03484001740590159 0 0 0 0
80000000 0.004508519721020934 0.018024250695217757 -0.00883906963006913 0.03525143599323731 0 0 0 0
81000000 0.0048593604595977054 0.01806110634516955 -0.006972204776796821 0.035443411813824974 0 0 0 0
82000000 0.005029001382909965 0.018426309669318762 -0.005010905985509084 0.03557878844879155 0 0 0 0
83000000 0.005110802188988384 0.01884893602477523 -0.0031171224268891455 0.03555064912221066 0 0 0 0
84000000 0.005180974032457813 0.018738735186376948 -0.001149067690215386 0.03553696086099222 0 0 0 0
85000000 0.005210201819160578 0.018988881020188482 0.0007126685638701221 0.035345230584067446 0 0 0 0
86000000 0.005186607573284005 0.01913365059257719 0.0025904886381010353 0.03515061150293461 0 0 0 0
87000000 0.0052773313957678964 0.019430607595532473 0.004363729193840424 0.03472756386910632 0 0 0 0
88000000 0.0053321641768289355 0.019756644520647442 0.006093066224636481 0.03425161613966174 0 0 0 0
89000000 0.005711433405242819 0.020015521953717225 0.007847445377274997 0.033639777495830504 0 0 0 0
90000000 0.0055090586583081665 0.020487274023877834 0.009622622180890375 0.03300042347429269 0 0 0 0
91000000 0.005642273482839123 0.0203238625764847 0.011278307005937833 0.032294585226397846 0 0 0 0
92000000 0.005626934316489795 0.020793121634932125 0.01287871404511641 0.031448539055769706 0 0 0 0
93000000 0.005537668793095597 0.020976058178489028 0.014437853793928809 0.03063895143810099 0 0 0 0
94000000 0.00581796664613812 0.020945248658906353 0.01594133726276426 0.02955716104480071 0 0 0 0
95000000 0.005696872613099018 0.021809110519291824 0.01731158059354559 0.028495576690613943 0 0 0 0
96000000 0.005975401450088814 0.021650456078082688 0.018632328321591934 0.0274767192999641 0 0 0 0
97000000 0.006138715217369187 0.022525665973791634 0.020020169663431772 0.02622746768188123 0 0 0 0
98000000 0.006315604181254463 0.02181934776976572 0.021266768784857337 0.024998651033140706 0 0 0 0
99000000 0.005678982110763315 0.022490788031107208 0.022421993881249557 0.023717662029727606 0 0 0 0
100000000 0.005781091646723408 0.022356705132634307 0.02350512165863835 0.022372768622517573 0 0 0 0
101000000 0.005960179035047388 0.02261068420944617 0.024515154111880596 0.02095495409448451 0 0 0 0
102000000 0.006405993340974375 0.023188152371045698 0.02555405412470609 0.019516233311497166 0 0 0 0
103000000 0.006160121651559765 0.023181518550571288 0.02638949699307555 0.018050762207311864 0 0 0 0
104000000 0.006337363820200836 0.023811762989206207 0.02721954156972416 0.016580713194820004 0 0 0 0
105000000 0.0065128736841315905 0.02380572617885274 0.0277919573290929 0.015030523223678783 0 0 0 0
106000000 0.006383561139686759 0.024302583262032787 0.028372124403733743 0.013426619122070495 0 0 0 0
107000000 0.006404667132126758 0.024462241562496705 0.02898908869008654 0.011840771514733625 0 0 0 0
108000000 0.0063825236565253 0.024765784633749104 0.029329365221873512 0.010281372968932351 0 0 0 0
109000000 0.006469254988004887 0.02523714136235118 0.02962388273245021 0.008589806045240353 0 0 0 0
110000000 0.006499557367158137 0.02555697597669932 0.029845389954130424 0.006944010883046254 0 0 0 0
111000000 0.006723023177455007 0.025794709367314827 0.02997003400928966 0.005431512471187903 0 0 0 0
112000000 0.007026693212287878 0.025360013763769285 0.030056729602310372 0.003807046392056205 0 0 0 0
113000000 0.006994431183065538 0.025956313731378383 0.030070780828990975 0.0021690627593722095 0 0 0 0
114000000 0.0068361679131389574 0.026467385583960383 0.029977628437628356 0.0005650851055571968 0 0 0 0
115000000 0.0070387305023676145 0.026840628253946272 0.02975704030714737 -0.0009331804612616993 0 0 0 0
116000000 0.0071000811753314805 0.026925289759844352 0.02950904573198405 -0.0024003508316489 0 0 0 0
117000000 0.006920940421750012 0.02696166480222021 0.02910748404229039 -0.004049028446948785 0 0 0 0
118000000 0.007256743722166793 0.02750639132867141 0.02871991801245566 -0.005514547900490518 0 0 0 0
119000000 0.007344710586802741 0.02800780528895148 0.028170965733764673 -0.006983489465961641 0 0 0 0
120000000 0.007296069786618109 0.028319278879184475 0.027626073321963106 -0.008295482215459173 0 0 0 0
121000000 0.0074073744927223885 0.02790778852821798 0.02694922020537641 -0.009718765996762378 0 0 0 0
122000000 0.007632902036023212 0.028304812783382743 0.02641927696804658 -0.011001781961950367 0 0 0 0
123000000 0.00741073797608093 0.028533862780160214 0.025538978502170177 -0.01226172909787205 0 0 0 0
124000000 0.007672416113333636 0.02868460245233751 0.024711523114853192 -0.013545038281220589 0 0 0 0
125000000 0.007440081874612706 0.029171165004437522 0.023891932700327426 -0.014750804402151162 0 0 0 0
126000000 0.007555351076171504 0.0291417168976168 0.0229409786200241 -0.015825563377687014 0 0 0 0
127000000 0.007414115934279858 0.029629288814326204 0.02200182237856909 -0.016852926350886917 0 0 0 0
128000000 0.007685130978800018 0.02995631375364434 0.020924184556885432 -0.017863461894314637 0 0 0 0
129000000 0.007693289091820361 0.029840043741975932 0.01987172508953953 -0.018782765177366424 0 0 0 0
130000000 0.0076033764259210304 0.03070087026011122 0.018709018384187766 -0.019695016289948408 0 0 0 0
131000000 0.0075390905152879885 0.030604775634775584 0.017524263394121768 -0.02056618024947437 0 0 0 0
132000000 0.008049570563769945 0.030733635636619867 0.01640857977851203 -0.02125147054598667 0 0 0 0
133000000 0.007784860845221625 0.031119186129207065 0.015103741796347285 -0.022034836632013527 0 0 0 0
134000000 0.008025471643816598 0.03183189108327264 0.013831744753256525 -0.02260072905573325 0 0 0 0
135000000 0.007777360600402907 0.03217105771059101 0.012579704215436527 -0.023109946381470903 0 0 0 0
136000000 0.008208529861175784 0.03196367897429203 0.011256942803464962 -0.02359879367173551 0 0 0 0
137000000 0.007887496690502569 0.03216255854874344 0.009978101729656713 -0.024044324157363982 0 0 0 0
138000000 0.008365206572198133 0.032355160142703246 0.00867915402929122 -0.02440259709710513 0 0 0 0
139000000 0.008546865020480077 0.03297435403371757 0.0073526075351077035 -0.024556514672966573 0 0 0 0
140000000 0.008051929713503938 0.03317576732142653 0.0059637155946507345 -0.02476552572381857 0 0 0 0
141000000 0.008284270978184719 0.03319811021859206 0.004600340979385916 -0.024784330784976168 0 0 0 0
142000000 0.007821109232410974 0.03264688152781029 0.003427938650894944 -0.02492266401396387 0 0 0 0
143000000 0.008561981491084107 0.03387881853959768 0.0021294515668149696 -0.024874916425544537 0 0 0 0
144000000 0.008344243445060686 0.03457163057621479 0.000705132949886005 -0.024633458635953072 0 0 0 0
145000000 0.008146299749128047 0.034194424234924616 -0.0006276330155804711 -0.024600983074204146 0 0 0 0
146000000 0.007906497438279854 0.03390145375654687 -0.0017198111885998292 -0.024225554692265165 0 0 0 0
147000000 0.008211921106616948 0.03511024400641151 -0.003143982067454528 -0.02402564822097446 0 0 0 0
148000000 0.008809052562383849 0.03488829042355534 -0.0042478958133619306 -0.023522707148766007 0 0 0 0
149000000 0.008245703189104009 0.03530808633132127 -0.005529893660667745 -0.023358534181083544 0 0 0 0
150000000 0.009134158680363364 0.03559469583541542 -0.006600709325769327 -0.022787828992168954 0 0 0 0
151000000 0.0087607143816831 0.03538768138734753 -0.007642568254628361 -0.022334832335739362 0 0 0 0
152000000 0.008956825030598851 0.035823747604290086 -0.008862120598033225 -0.021596791025765994 0 0 0 0
153000000 0.008223389855859601 0.035941391070729675 -0.009812194498547271 -0.02101070496278831 0 0 0 0
154000000 0.008650315552471107 0.03662956263596131 -0.011084410621467472 -0.02017676699375082 0 0 0 0
155000000 0.009298374605208097 0.03650232777685291 -0.011690485889156563 -0.019740962989113917 0 0 0 0
156000000 0.008488579283373746 0.03717251760572526 -0.01261357725633877 -0.018862872999210852 0 0 0 0
157000000 0.00961587071219236 0.03737126987512168 -0.013522082165248363 -0.01810114753099075 0 0 0 0
158000000 0.009560592700576841 0.036689474475715626 -0.014408323612836034 -0.017121595134134134 0 0 0 0
159000000 0.00889381466762926 0.03732477439798807 -0.015078980526259052 -0.016284915989436263 0 0 0 0
160000000 0.00855424104426674 0.03761140509911247 -0.015910406882986245 -0.015310839909536814 0 0 0 0
161000000 0.009522481625413692 0.037479743989207205 -0.016393102062922625 -0.01433625480647725 0 0 0 0
162000000 0.009416258620444963 0.03756197157013648 -0.01720565013145915 -0.013417525532837241 0 0 0 0
163000000 0.008983347850179532 0.03863489493745831 -0.01759446813005717 -0.012469565854411984 0 0 0 0
164000000 0.009692305892560829 0.038718889387912535 -0.018066955587671636 -0.011563099972556341 0 0 0 0
165000000 0.009731103971254273 0.03857036017566146 -0.018595753516995956 -0.010555490572966269 0 0 0 0
166000000 0.01026739230501932 0.03891107886292555 -0.01901039233732818 -0.009352380034391731 0 0 0 0
167000000 0.01001752126197829 0.03889779130249578 -0.019116497018429535 -0.008426055527435562 0 0 0 0
168000000 0.010197759054955045 0.039224910445397346 -0.01963057026675223 -0.007405160447860157 0 0 0 0
169000000 0.009428265795701496 0.03937108184022336 -0.01961992626176942 -0.0061612128402086744 0 0 0 0
170000000 0.010497240503586703 0.03959977011562029 -0.01971279483140935 -0.0051239717812162034 0 0 0 0
171000000 0.010088299209704547 0.040331035014383614 -0.01993917377735612 -0.004242716702402646 0 0 0 0
172000000 0.010207348820746899 0.041441842665477825 -0.020052830236427337 -0.003275166968383785 0 0 0 0
173000000 0.009793678187613666 0.04012321416800902 -0.020022816156562574 -0.0021225402828911693 0 0 0 0
174000000 0.010957281791991326 0.040735886472524935 -0.01989856061458538 -0.0010544638992691978 0 0 0 0
175000000 0.009738237691075085 0.04110455800302243 -0.019744630633078474 -4.900818220325528e-05 0 0 0 0
176000000 0.01053818225732087 0.0413740712957795 -0.019601259120545087 0.0008089597368173378 0 0 0 0
177000000 0.01046149553720705 0.04136212880937757 -0.01935142133816559 0.0017157680390272614 0 0 0 0
178000000 0.010811520730242349 0.041139964008385516 -0.019156896716175674 0.003015803779464725 0 0 0 0
179000000 0.010698341501329273 0.04190963993880952 -0.018787207758236064 0.0038940642568240963 0 0 0 0
180000000 0.010610514357400284 0.04191498656938788 -0.018550807335963086 0.004746256696267487 0 0 0 0
181000000 0.011132083181188527 0.04182319726296439 -0.01797247071541424 0.005645086928768037 0 0 0 0
182000000 0.010977441676060178 0.04245459604213855 -0.017603638012044114 0.00683213360521855 0 0 0 0
183000000 0.010270895833206239 0.04290658486525493 -0.01709840030438056 0.007275156920635168 0 0 0 0
184000000 0.010858082542968281 0.04243921458215138 -0.016631038981763584 0.00822056766402454 0 0 0 0
185000000 0.011392573881480733 0.04304853098524563 -0.016109262364831255 0.008847118493341279 0 0 0 0
186000000 0.01106286026377504 0.04311679913694697 -0.015422087618840733 0.009604977349408147 0 0 0 0
187000000 0.01092393281678695 0.0435303728706606 -0.014905289731608188 0.01042826394432523 0 0 0 0
188000000 0.011836120822236602 0.04291944679044831 -0.014089493923014 0.010949709037787192 0 0 0 0
189000000 0.010981351820555778 0.044231005390326705 -0.013593532885854354 0.011482098540579173 0 0 0 0
190000000 0.011320027760493269 0.0439651284334331 -0.012762601889705332 0.012085762471193522 0 0 0 0
191000000 0.010809555851387466 0.04352823530522131 -0.012133323509735998 0.012716305945864743 0 0 0 0
192000000 0.012435772091275579 0.044021622065481165 -0.011233451583750801 0.013159088098324718 0 0 0 0
193000000 0.011654856074222593 0.04532226302216095 -0.010458410752463253 0.013699122599841233 0 0 0 0
194000000 0.012270120877453558 0.04505070922908559 -0.009766753433249967 0.014106160527718965 0 0 0 0
195000000 0.011564950626231358 0.045113309782322586 -0.008850089840032452 0.014464962676794013 0 0 0 0
