# HZ S RI R 50
1000000 -0.00046378735019950526 0.0004967911999131082 0.04647017536359061 -0.003516505006704539 0 0 0 0
2000000 0.0003666714535856414 0.00031171516000191445 0.047853308344812565 -0.004776040791637976 0 0 0 0
3000000 -0.00014423375357317092 0.0007828153602618086 0.04754781599907034 -0.007481722253547307 0 0 0 0
4000000 8.043080208639401e-05 0.0008428452452642743 0.0470622461699919 -0.009961568358249632 0 0 0 0
5000000 -2.290024947357439e-05 0.0012522841140768075 0.046343331006123215 -0.012482081750237925 0 0 0 0
6000000 0.00028133455147230917 0.002450904315217931 0.04547925615715132 -0.014888319207115044 0 0 0 0
7000000 0.0007148138677859355 0.0016655481163077852 0.04446355178940503 -0.017102616877581633 0 0 0 0
8000000 0.00048444398799683233 0.002158685578185697 0.043478170761557876 -0.019277630539891236 0 0 0 0
9000000 0.00048443139783692016 0.002253311987167926 0.04242273176004573 -0.021350704291617662 0 0 0 0
10000000 0.0002724124775050681 0.0026363373869248037 0.04129441951464432 -0.02352353708754086 0 0 0 0
11000000 0.00048257121641070923 0.00270000839220608 0.03998733904870695 -0.025545967230495036 0 0 0 0
12000000 0.000376634305330236 0.003160569865657817 0.038636642392267384 -0.02759509024206052 0 0 0 0
13000000 0.0007202855315143104 0.0035785410070761667 0.03721694226872217 -0.02947460222091223 0 0 0 0
14000000 0.0005084839396301048 0.0029432793122296796 0.035660512415865764 -0.03146106298891644 0 0 0 0
15000000 0.0009001041451209435 0.004023025785958399 0.03390546335183103 -0.03312581272173383 0 0 0 0
16000000 0.000619122666830173 0.003674709672701131 0.03216610051967703 -0.03489650383063125 0 0 0 0
17000000 0.0006705192517128304 0.004594198718968111 0.030286303583678023 -0.03641717996336769 0 0 0 0
18000000 0.0012549403280089418 0.004219613419060185 0.02839379584320277 -0.038022472033566075 0 0 0 0
19000000 0.0009657630612089867 0.0048511224281234675 0.02627080279620005 -0.0394164527972684 0 0 0 0
20000000 0.0010652708378323585 0.0050717876714448835 0.024283765175185438 -0.04067638193983153 0 0 0 0
21000000 0.0010750396857199637 0.005128536500215252 0.021985903276762298 -0.041879923940641293 0 0 0 0
22000000 0.0011949018927133522 0.005073577304817716 0.019796060933035764 -0.04285009819704628 0 0 0 0
23000000 0.001031896534555212 0.00578708903260291 0.017474987964995182 -0.04384952887021109 0 0 0 0
24000000 0.001208335191966499 0.005700280640605081 0.015149112679897499 -0.04457134679591655 0 0 0 0
25000000 0.0008916467516437905 0.005870268652708475 0.012792210944133603 -0.04524904242528039 0 0 0 0
26000000 0.0016223120043705964 0.006126529243262038 0.010426985802204093 -0.04589660972993872 0 0 0 0
27000000 0.001275173742783165 0.006215385838274639 0.00800750219510234 -0.0462658766976289 0 0 0 0
28000000 0.0017134618536415063 0.006542113226481704 0.005509947332724584 -0.04653271424598522 0 0 0 0
29000000 0.0014783091725146815 0.006837593099427633 0.003075470831282027 -0.046699236820976174 0 0 0 0
30000000 0.0016947432950332533 0.006975556148029547 0.0006087632222706945 -0.04667619803165049 0 0 0 0
31000000 0.0016878432761478252 0.007166350554092009 -0.0017556496233491687 -0.046648950565227464 0 0 0 0
32000000 0.0016498325788818979 0.007788843067282001 -0.004130711554314765 -0.04622467440788657 0 0 0 0
33000000 0.0013857976253290772 0.007414622783996074 -0.006567425145378316 -0.04596495742386221 0 0 0 0
34000000 0.0014618593813147942 0.008301179280942149 -0.008889114161852287 -0.0454688149301877 0 0 0 0
35000000 0.0014650683223319957 0.008090597551692218 -0.0112550144587353 -0.04484593847429553 0 0 0 0
36000000 0.0023024485935212034 0.008259075364485472 -0.013510387656631376 -0.044149782369383064 0 0 0 0
37000000 0.001983163188946356 0.008245117195201306 -0.0157651150596892 -0.04330859046919871 0 0 0 0
38000000 0.002299955213310805 0.008589132349785315 -0.017938407735043238 -0.042364070483827905 0 0 0 0
39000000 0.0017706644995773631 0.008606456579818152 -0.02005969273389192 -0.04124963056834973 0 0 0 0
40000000 0.002309163109636871 0.009028608938031464 -0.022145138244477017 -0.04007913594448508 0 0 0 0
41000000 0.0023913460027964683 0.009092068006556335 -0.024000083068578197 -0.03894954886152749 0 0 0 0
42000000 0.002249623786944811 0.009513193483925788 -0.026046548674186425 -0.037414544874947546 0 0 0 0
43000000 0.0021284666855927777 0.009484716686716138 -0.027852307984533736 -0.03586844879311343 0 0 0 0
44000000 0.0020691548425850006 0.01003364227609955 -0.029485356534691167 -0.03449302377490073 0 0 0 0
45000000 0.0022963369371877596 0.010064826781513702 -0.03125112991948065 -0.03276451122589986 0 0 0 0
46000000 0.0020832553788122624 0.009848900711507956 -0.0327244852397664 -0.031005841274204072 0 0 0 0
47000000 0.002848588156517553 0.010276927282731219 -0.03423556237590421 -0.029205982927269437 0 0 0 0
48000000 0.0026002081847655385 0.01070346925116555 -0.03561517734113658 -0.027349551700629228 0 0 0 0
49000000 0.002735928220834046 0.010692897203129806 -0.03680284122005625 -0.02553859441854195 0 0 0 0
50000000 0.0028498575843103557 0.011085271974542016 -0.03801195912700953 -0.023566082383525744 0 0 0 0
51000000 0.00267681625424562 0.011502457319692563 -0.03904900490379099 -0.02149910484201215 0 0 0 0
52000000 0.00314680057193088 0.011195908269644771 -0.03999792562612516 -0.019516565206798724 0 0 0 0
53000000 0.0026804416450051717 0.01180792911024891 -0.040856023369851 -0.017325344399675882 0 0 0 0
54000000 0.003353578144654755 0.011644874288887634 -0.04156911472209867 -0.01525124535639393 0 0 0 0
55000000 0.002990294100832374 0.011974259011119223 -0.04222764981676824 -0.013047740561325209 0 0 0 0
56000000 0.0030797187300495503 0.01289824517327883 -0.0427220417574869 -0.010834143080804017 0 0 0 0
57000000 0.0028175769582176307 0.01262871936985467 -0.043021050363452815 -0.008599861761744683 0 0 0 0
58000000 0.003270595296886419 0.012682247226558752 -0.04330723873078875 -0.006401213847286273 0 0 0 0
59000000 0.003394694959935697 0.012801991441979462 -0.043476026750756507 -0.004171731074177113 0 0 0 0
60000000 0.003775039163652594 0.013660927362006818 -0.0434435024830857 -0.0019758873674011364 0 0 0 0
61000000 0.003822496269085 0.01310998996673463 -0.043495207772702035 0.0002651152584383991 0 0 0 0
62000000 0.0032949576905891773 0.013777472217979786 -0.043192237965551765 0.0024258988948275017 0 0 0 0
63000000 0.003585495341217446 0.013585020602217933 -0.04300771897059199 0.004662226891904532 0 0 0 0
64000000 0.003974053096942163 0.014347934685539425 -0.0423991772234111 0.0067360360814711666 0 0 0 0
65000000 0.003953755497972519 0.01434330342462665 -0.04197738659281077 0.008814062981899127 0 0 0 0
66000000 0.003669789552826855 0.014623892770525284 -0.04142539980939605 0.010973373763685434 0 0 0 0
67000000 0.004441268932279913 0.015221983930858671 -0.04061705417477103 0.012909302490684622 0 0 0 0
68000000 0.003920099785367633 0.015250220229719707 -0.03984758274034998 0.014951951141474963 0 0 0 0
69000000 0.004132152915733353 0.01553359756944953 -0.03896127572399155 0.016901400034256296 0 0 0 0
70000000 0.004117459351593043 0.015348960121872717 -0.03794085945814834 0.018820635268021996 0 0 0 0
71000000 0.004222075423975744 0.015669222155584504 -0.036771295317801676 0.02069496912235186 0 0 0 0
72000000 0.004058471610666191 0.01612305254539008 -0.035643475483022234 0.02241550049715317 0 0 0 0
73000000 0.004706349936356639 0.01634155991754903 -0.03443253267571837 0.0240588786653806 0 0 0 0
74000000 0.004779336993827526 0.01547038580206855 -0.03293679793363793 0.025682126169963775 0 0 0 0
75000000 0.0045588570149062745 0.016401860942369024 -0.03161668281113716 0.02727658794737667 0 0 0 0
76000000 0.004492412865089367 0.016976431779742326 -0.030033213546881557 0.028785723525001732 0 0 0 0
77000000 0.004689982246232633 0.01729696474463694 -0.0285302553041312 0.030188171776405058 0 0 0 0
78000000 0.004998042293860066 0.017407984974151518 -0.02686572053881077 0.031482666041190425 0 0 0 0
79000000 0.004656523017869453 0.017595198382375374 -0.02521117783969188 0.032683283473099074 0 0 0 0
80000000 0.004912878743021051 0.017543662940945358 -0.023421051242343373 0.03391734913272047 0 0 0 0
81000000 0.004634439852028876 0.018010558355023413 -0.021631137018991973 0.03490591521851387 0 0 0 0
82000000 0.005108925167945401 0.018230359746765394 -0.01985708058025595 0.03585340197630345 0 0 0 0
83000000 0.005188599096746782 0.01849666727466174 -0.01792516858506354 0.03666500331877952 0 0 0 0
84000000 0.005661511642338792 0.018701654600228473 -0.016081186113466636 0.03744995776213489 0 0 0 0
85000000 0.0058378612729797635 0.019066667651223782 -0.014120629514084014 0.038126648191520944 0 0 0 0
86000000 0.005897426847648249 0.01892124775555919 -0.01219651699753751 0.03868749102350666 0 0 0 0
87000000 0.005356950450842418 0.019366238783923195 -0.010202685894237716 0.039226684930189465 0 0 0 0
88000000 0.006210585378929704 0.019464243917594513 -0.008292663021187242 0.03943240667761403 0 0 0 0
89000000 0.006189229710410839 0.019608201646288036 -0.006307980360260889 0.03980021057821626 0 0 0 0
90000000 0.00612234840302103 0.020123758514707508 -0.004340057799175285 0.0399350789047447 0 0 0 0
91000000 0.006282607192221641 0.02044678300030992 -0.0023505105126172044 0.04000209474477802 0 0 0 0
92000000 0.006467354790714339 0.020723017082741525 -0.0003516214000824488 0.03992385557601927 0 0 0 0
93000000 0.005930471514777756 0.0209593497355588 0.001573674354104114 0.03982197156523992 0 0 0 0
94000000 0.0061877551689059965 0.02114356787421421 0.0035016878191001313 0.03960189010101291 0 0 0 0
95000000 0.006061325342908353 0.02143404001014787 0.005507283942284208 0.03923022057546475 0 0 0 0
96000000 0.006785749622316456 0.021211159876188046 0.007309866229616741 0.03880629414658097 0 0 0 0
97000000 0.006410762911682899 0.021984976854513935 0.009271314630342704 0.03823501529177199 0 0 0 0
98000000 0.006571533191195752 0.021372614494571184 0.011193830382722281 0.037598803959312255 0 0 0 0
99000000 0.00612008356986758 0.022341623875672827 0.012961395494423286 0.03692614845324818 0 0 0 0
100000000 0.0062614436789968945 0.021696529745509868 0.014801903401274663 0.036124148817885546 0 0 0 0
101000000 0.006477814638003684 0.02221439809526174 0.016461024523165575 0.035203119575531835 0 0 0 0
102000000 0.007353508479366917 0.022539431029016954 0.018307330907050057 0.03425160829185762 0 0 0 0
103000000 0.006934866642095825 0.02322247155083793 0.01995498301544959 0.03333437153512034 0 0 0 0
104000000 0.006939766610918662 0.022970231261994087 0.021546614134437522 0.03222210606976542 0 0 0 0
105000000 0.006619054754595745 0.023199010119318672 0.023039809304639534 0.030934199840211625 0 0 0 0
106000000 0.007100292099803989 0.023257298731454667 0.024483904848198883 0.02965108660740022 0 0 0 0
107000000 0.007146990920030532 0.02344524442419794 0.025918918902426463 0.02829165614446406 0 0 0 0
108000000 0.006658699727989756 0.02434688011024982 0.027150415417854942 0.026919605210615975 0 0 0 0
109000000 0.0071945425178055735 0.024797033847641765 0.028397673457355405 0.02538164556418974 0 0 0 0
110000000 0.006774554199999501 0.024851992125450424 0.02952558533746731 0.02386692239443651 0 0 0 0
111000000 0.007106341194701605 0.02499989828194354 0.03064478081872842 0.022329571963755457 0 0 0 0
112000000 0.007088593594298926 0.024632886700535365 0.03154388496280448 0.02076676351019054 0 0 0 0
113000000 0.007357642791959121 0.025231792634865025 0.032538268828556746 0.019084136689619842 0 0 0 0
114000000 0.0073440443064912864 0.025440908129398206 0.033274302517022215 0.017389867554142787 0 0 0 0
115000000 0.007447205151548917 0.02623021040231871 0.03400278634923719 0.01564632056949154 0 0 0 0
116000000 0.007438103801936493 0.02646630234620071 0.034636436548719944 0.013919097922577301 0 0 0 0
117000000 0.007078948476794418 0.026199930355890192 0.03518311140650062 0.01206591625617526 0 0 0 0
118000000 0.007378882559787873 0.02620148378556348 0.035718195251936015 0.010267653489616923 0 0 0 0
119000000 0.00811207451948678 0.027104620071889237 0.03600338798116664 0.00849012178028517 0 0 0 0
120000000 0.007986847525733667 0.02723686585299683 0.036346377609276774 0.006671448986925544 0 0 0 0
121000000 0.007916451468651619 0.02761097483616522 0.03644098311431428 0.004872482056325972 0 0 0 0
122000000 0.007611016729741619 0.02755408560551368 0.03668986991049722 0.002963190838087507 0 0 0 0
123000000 0.0076769875134410125 0.02730796896324384 0.036620560881678206 0.0011283813578285627 0 0 0 0
124000000 0.008261867243760428 0.027556688365656355 0.03656990545100551 -0.000632313283888038 0 0 0 0
125000000 0.007934389847041742 0.028398210186110006 0.03640060715879132 -0.0024821949516763042 0 0 0 0
126000000 0.008155806046251206 0.028322332427260167 0.03605905482590839 -0.004256818912533998 0 0 0 0
127000000 0.007573460488789995 0.029006176309923578 0.03580294150251047 -0.006036218377964408 0 0 0 0
128000000 0.007993874715233065 0.02865968135985951 0.03533737948516477 -0.007747051726965538 0 0 0 0
129000000 0.008656294570592079 0.029213311643031103 0.03479154364994648 -0.009541952271490116 0 0 0 0
130000000 0.007713185410389214 0.029762214563633708 0.034133507196500955 -0.011227242101844864 0 0 0 0
131000000 0.007776472339454435 0.029606650567747646 0.033402704973790505 -0.012961226668590793 0 0 0 0
132000000 0.00782005072290563 0.029297243711457505 0.032623117385056515 -0.014431126019068223 0 0 0 0
133000000 0.008255683327206428 0.029376866358275158 0.03179882133441711 -0.016115633808878756 0 0 0 0
134000000 0.008753729545945247 0.030687334906016387 0.030824793259275136 -0.017528059805039114 0 0 0 0
135000000 0.008217612704408375 0.03097234484459503 0.02981204273991435 -0.019019705756039423 0 0 0 0
136000000 0.008490576684784843 0.030677764643708087 0.0287555179151374 -0.020504334261283313 0 0 0 0
137000000 0.007598387244312075 0.030948642604736596 0.027618707393214523 -0.02179977747277088 0 0 0 0
138000000 0.008499144303166435 0.0308381191296181 0.02635142951064571 -0.023084074866820764 0 0 0 0
139000000 0.008898708773627816 0.03113396350651267 0.025112801988180368 -0.0242572639791913 0 0 0 0
140000000 0.007891443976984238 0.03145221689081006 0.023773556746469297 -0.025501101116833767 0 0 0 0
141000000 0.008728788668037515 0.03157543407233323 0.022544071888061915 -0.02642166638134184 0 0 0 0
142000000 0.008170203870282977 0.03150411849487014 0.020862585010932286 -0.027490957338270814 0 0 0 0
143000000 0.008934093868848497 0.03274675759726738 0.01951639114466269 -0.028359175005458512 0 0 0 0
144000000 0.009519502976639402 0.032132463732532306 0.017839396250638136 -0.029152261771279765 0 0 0 0
145000000 0.007983725009864417 0.0327640933474198 0.01636847599943893 -0.030021870815542768 0 0 0 0
146000000 0.00872099266038789 0.03241664951780114 0.01488056208931492 -0.030546618941223458 0 0 0 0
147000000 0.007961666331441814 0.033494386043599986 0.013179964676521164 -0.03128615244725435 0 0 0 0
148000000 0.008259641314466177 0.03348155310274371 0.01164646443339211 -0.031602332456872835 0 0 0 0
149000000 0.008721658274423038 0.03440508333493893 0.009905167596712705 -0.032091740962536155 0 0 0 0
150000000 0.008781524892650596 0.03358674078555461 0.008412935755057119 -0.03255903312669456 0 0 0 0
151000000 0.008898972019130896 0.033745182037723295 0.006435710156544059 -0.03287454523083894 0 0 0 0
152000000 0.008758135683534299 0.0345941871231051 0.0048200880031973314 -0.0328709824227476 0 0 0 0
153000000 0.008244663135921126 0.03356037087695435 0.00327918904706476 -0.03297109202359543 0 0 0 0
154000000 0.008485114341645913 0.03469618648029325 0.001454908038824709 -0.03297452106586385 0 0 0 0
155000000 0.008660408882650713 0.0342742908074433 -0.00010456037666990107 -0.033044529155990245 0 0 0 0
156000000 0.008665247071695076 0.03522738425028246 -0.001679278529762924 -0.03269949901553439 0 0 0 0
157000000 0.009769135825581745 0.03572295408251408 -0.0034391352155295437 -0.03242907917695653 0 0 0 0
158000000 0.009781492241762911 0.03512548825067603 -0.005036565360969248 -0.03206873533496515 0 0 0 0
159000000 0.009181220836702563 0.03599649833788312 -0.006524247398751178 -0.03161247792437731 0 0 0 0
160000000 0.008611431405695926 0.035262726984441016 -0.008045645767709195 -0.03109449897574148 0 0 0 0
161000000 0.009904749754826839 0.03629133445710004 -0.009615238266898233 -0.03047428541554292 0 0 0 0
162000000 0.008952477765902878 0.035817804354301694 -0.01127568405682014 -0.029885446840073028 0 0 0 0
163000000 0.008735237255034257 0.03694087010999941 -0.012580674233516437 -0.029179286172418745 0 0 0 0
164000000 0.009029838049565718 0.03627526959161104 -0.013732152346148382 -0.028430292772707186 0 0 0 0
165000000 0.009480613335271145 0.03657708889617681 -0.015217189976504905 -0.027600303821486944 0 0 0 0
166000000 0.00938629229391792 0.037199216193111576 -0.01652220409528476 -0.026585490103973715 0 0 0 0
167000000 0.010150362300280226 0.03720225515584459 -0.017682575585197494 -0.025805103339994424 0 0 0 0
168000000 0.010163010418364432 0.03724440865723638 -0.019081482475239307 -0.024599941599636854 0 0 0 0
169000000 0.00931865651324655 0.03738772609192179 -0.020002123349731782 -0.02365876202439667 0 0 0 0
170000000 0.010238030679054972 0.03733574391703447 -0.02101267032644396 -0.02252955786524976 0 0 0 0
171000000 0.009991056668601438 0.03772719567705921 -0.022364955105685473 -0.021368995528026936 0 0 0 0
172000000 0.009969436434593582 0.039157650652628606 -0.023099631783396385 -0.020220727446183178 0 0 0 0
173000000 0.008931593597265893 0.03802387609011973 -0.02401915522365112 -0.01881697230352219 0 0 0 0
174000000 0.009271436411004872 0.03864611346872275 -0.024836742637665183 -0.017402906863698237 0 0 0 0
175000000 0.009596930244050068 0.038530644413890286 -0.02564449204649421 -0.016207880726052847 0 0 0 0
176000000 0.009438375916330807 0.03965927872193064 -0.026137093237386833 -0.0149777197898518 0 0 0 0
177000000 0.009543756794622448 0.03921007597651725 -0.026741041905322862 -0.0135384966756102 0 0 0 0
178000000 0.010191611249370052 0.039479569757653245 -0.027180674543741526 -0.012068499060249819 0 0 0 0
179000000 0.009900276465461775 0.039310942612547535 -0.02757237793922528 -0.010686080387417704 0 0 0 0
180000000 0.009970993029309781 0.03953240661896203 -0.028102518682180905 -0.009104386023800107 0 0 0 0
181000000 0.010312610103041181 0.03963102278214925 -0.028268449936835534 -0.007741608425770739 0 0 0 0
182000000 0.010335305982773813 0.04055549572837166 -0.028408227109201625 -0.0061001806502102105 0 0 0 0
183000000 0.010377862060327446 0.04044837757694282 -0.02874390563202269 -0.004880183020048754 0 0 0 0
184000000 0.010645553632831635 0.04040786848276835 -0.028802755918814253 -0.0035278094767092747 0 0 0 0
185000000 0.010326252690885175 0.040650538119929115 -0.02876160696568322 -0.0019616240623025714 0 0 0 0
186000000 0.010821167960305347 0.04137175187124978 -0.028660623969481137 -0.000674087818623777 0 0 0 0
187000000 0.010048793057009491 0.04100456110723607 -0.028590530791571003 0.0009786410479614587 0 0 0 0
188000000 0.01037905799075214 0.04178623018048423 -0.028317983308188754 0.0023133825372561316 0 0 0 0
189000000 0.010026739092799025 0.04115403193528004 -0.028161969730192558 0.003656918372993961 0 0 0 0
190000000 0.010971402559580805 0.041422852316540436 -0.02765706542149294 0.004924696001756718 0 0 0 0
191000000 0.010498251934714929 0.04181053646160311 -0.02734958992070157 0.006518682766158768 0 0 0 0
192000000 0.010302004164057629 0.041946385098589584 -0.026824058731025762 0.007755576878702708 0 0 0 0
193000000 0.010755190072710488 0.042292437546148184 -0.026285336221562736 0.008994732418435729 0 0 0 0
194000000 0.010506736624211187 0.04318527895462352 -0.0257011508484876 0.010311329027292631 0 0 0 0
195000000 0.010714248556419175 0.04291673738226583 -0.02499827487011869 0.011653766866533365 0 0 0 0
196000000 0.010788728276955643 0.04252716444788456 -0.02447583742622716 0.01248008728256886 0 0 0 0
