# HZ S RI R 50
1000000 -0.0003035866427715493 -1.1956110880758688e-06 0.04798276667799435 -0.0033275577520894824 0 0 0 0
2000000 0.00010140133322368814 0.0008820633402013624 0.04941630375512416 -0.00433830263673729 0 0 0 0
3000000 -0.00022554655944135416 0.0009840694936376787 0.04926751210711075 -0.006781304708861061 0 0 0 0
4000000 0.0002639248733528713 0.0011928493644071919 0.04880069048259356 -0.009173143962330231 0 0 0 0
5000000 0.00011530037063525581 0.0014027308952133553 0.04821107560209711 -0.011373390901340373 0 0 0 0
6000000 -0.0002351313500649012 0.0019148694937631179 0.04755689039812194 -0.013619515452693085 0 0 0 0
7000000 3.421705558794829e-05 0.0021437599480049687 0.04678300796249886 -0.015696363799432744 0 0 0 0
8000000 0.00039978319564911916 0.0027461681268987057 0.04605174445114035 -0.017739391101020883 0 0 0 0
9000000 0.00040454027270871737 0.002196171370173129 0.04515422627834773 -0.019730737432551736 0 0 0 0
10000000 -0.00012269815520607618 0.0026978252219028143 0.044207079112586735 -0.021760068312824524 0 0 0 0
11000000 0.00036990956517546586 0.0027992699095505174 0.04318294740766956 -0.023649521607757875 0 0 0 0
12000000 0.0005171974069381461 0.0031365640339549644 0.042158061153283174 -0.02572259424945612 0 0 0 0
13000000 9.759243698212115e-05 0.003636995107872487 0.04101215359706137 -0.02754135003964904 0 0 0 0
14000000 0.0002580226368514005 0.0037630228049583504 0.03970113627311914 -0.029400917011454985 0 0 0 0
15000000 0.0006993979089407406 0.003492729225691685 0.03842017020454242 -0.031179942511115152 0 0 0 0
16000000 0.0009669723242642872 0.0038216274003370285 0.03693946866961243 -0.03300607000505576 0 0 0 0
17000000 0.0005471725105180582 0.004912968873523406 0.03549175407351013 -0.0346903923297411 0 0 0 0
18000000 0.0007643434374311681 0.004369718101586123 0.03391105669662944 -0.03637078233274629 0 0 0 0
19000000 0.001023785419931366 0.004834796607658992 0.03214162245550514 -0.03791377181842388 0 0 0 0
20000000 0.0006685031999877998 0.005089041194214384 0.03037894117046225 -0.039453166670473584 0 0 0 0
21000000 0.0010535455104443848 0.005303215310986607 0.028459252450180578 -0.04081324468624363 0 0 0 0
22000000 0.001158310240875213 0.00541826066188107 0.026641415727455767 -0.04215056255740429 0 0 0 0
23000000 0.0009263075234004477 0.005782426358882727 0.024605129194019876 -0.0433648764150621 0 0 0 0
24000000 0.0010401344038851693 0.0062985022004957885 0.02260085003455146 -0.04451108078395844 0 0 0 0
25000000 0.0008907311544414469 0.0062097586986448565 0.020551147301444254 -0.04554889641495993 0 0 0 0
26000000 0.0017414177650916548 0.006409148997556645 0.01834217415067112 -0.04652997304466783 0 0 0 0
27000000 0.001070012535232619 0.006469470153552868 0.016137153319477036 -0.04728336581777107 0 0 0 0
28000000 0.0014897055552697677 0.00665357945348441 0.013835073643435251 -0.048038553857596845 0 0 0 0
29000000 0.0015170449782323154 0.007174354554763269 0.011676871258175126 -0.048701901251659754 0 0 0 0
30000000 0.001851724325821813 0.007193028010635714 0.009247079479540428 -0.04918591697742535 0 0 0 0
31000000 0.0013988893667578426 0.007752290247129498 0.00710345748688751 -0.04964700827186668 0 0 0 0
32000000 0.0015224194981378627 0.007606199302946147 0.004669940259511537 -0.04986955904996699 0 0 0 0
33000000 0.0013677935966299733 0.008050451795827224 0.0023685286437207407 -0.05005632798222298 0 0 0 0
34000000 0.0017153869904112558 0.008564258566756475 3.973072177878711e-05 -0.05022972009750716 0 0 0 0
35000000 0.0016640454713404984 0.008747290252027334 -0.0022934439438046256 -0.05016084973607034 0 0 0 0
36000000 0.0022234204378354717 0.008747196786001313 -0.004702943395193056 -0.04991028598768923 0 0 0 0
37000000 0.0018103394074644999 0.008678977199326638 -0.006998285018164932 -0.04970920949927778 0 0 0 0
38000000 0.0020584363777757897 0.008691943280179968 -0.009330864410711405 -0.04930767940774546 0 0 0 0
39000000 0.0016064021153287136 0.009265260189578175 -0.011661217820878639 -0.04884807262250016 0 0 0 0
40000000 0.0022682670278923074 0.009450584104389877 -0.013996620408554225 -0.0482308851220393 0 0 0 0
41000000 0.0026028155708378432 0.0091583864318179 -0.016233572310936147 -0.04753983041259598 0 0 0 0
42000000 0.002489475345219836 0.010183363940946896 -0.01854510294844319 -0.04677808949491881 0 0 0 0
43000000 0.0020969182560089277 0.00990300127890719 -0.020731574366744353 -0.04589874835383236 0 0 0 0
44000000 0.0023282929592077658 0.010356329332275734 -0.02273743989410378 -0.04493775642021781 0 0 0 0
45000000 0.0025676281454687644 0.010468089006532063 -0.02484651008331734 -0.043741746476735725 0 0 0 0
46000000 0.0026348049682322072 0.010702708766482716 -0.026901029145042492 -0.04257238958829402 0 0 0 0
47000000 0.002817553719922946 0.011207136609322904 -0.0289041109416579 -0.04126791631228035 0 0 0 0
48000000 0.0029901909734347354 0.011309514946894552 -0.03075959898163416 -0.03987574512041088 0 0 0 0
49000000 0.002988039185444339 0.01155920826294234 -0.032727119644373234 -0.03847720291232095 0 0 0 0
50000000 0.0034148892435172384 0.011854165931576737 -0.03446960647041119 -0.036959388739231096 0 0 0 0
51000000 0.003066989223990507 0.01188560684400472 -0.03618621946929316 -0.03515316087733276 0 0 0 0
52000000 0.0033168171282157355 0.011799789705678085 -0.03784473672046933 -0.033650315669761476 0 0 0 0
53000000 0.0033794702430339166 0.012758084033108703 -0.03945760514453155 -0.031671923192010495 0 0 0 0
54000000 0.0030663562869472634 0.012080560546817151 -0.04087705923006511 -0.029923777854430574 0 0 0 0
55000000 0.00309570669632899 0.012766002266968376 -0.04226905643330856 -0.02796750379170415 0 0 0 0
56000000 0.0035671471891314675 0.01362046491773568 -0.04361001537738659 -0.025811033485330377 0 0 0 0
57000000 0.003276592977214101 0.01372838226729385 -0.04474478770365944 -0.023762999232929755 0 0 0 0
58000000 0.0034143487690330415 0.013680128130022954 -0.04582071872864115 -0.021621549519389795 0 0 0 0
59000000 0.00337334862724831 0.01384997903872189 -0.046791627157385544 -0.019450593918951587 0 0 0 0
60000000 0.0038571657965534548 0.013957142052513923 -0.047664933027369266 -0.01734136424879565 0 0 0 0
61000000 0.0037936848904121523 0.014294928367480685 -0.048470800056233075 -0.01496365249445126 0 0 0 0
62000000 0.004158600396706966 0.014335897020661615 -0.049061487136721295 -0.012662272602008615 0 0 0 0
63000000 0.0036636615987083515 0.014867960452346536 -0.049806304683273864 -0.010327809190076066 0 0 0 0
64000000 0.004053356854396476 0.014617288022861547 -0.050033290929462515 -0.007916930581557196 0 0 0 0
65000000 0.0041481657122610874 0.01503362622334721 -0.05047253355059391 -0.0056301589452805445 0 0 0 0
66000000 0.004231203516058724 0.01565287488140695 -0.050795954330863 -0.003182348467058414 0 0 0 0
67000000 0.004723205720516399 0.01566398748299078 -0.05075695331425603 -0.0008237241993101275 0 0 0 0
68000000 0.004290085592081837 0.015915527755836156 -0.05075740052518605 0.0016965628988696662 0 0 0 0
69000000 0.004352430053006548 0.01602415580471658 -0.05076864627610115 0.004033484975820486 0 0 0 0
70000000 0.004470206805926853 0.016072873762196026 -0.05050817293470434 0.006500265580901668 0 0 0 0
71000000 0.004805649243327573 0.016596748222284314 -0.050066011200587186 0.00891348800359768 0 0 0 0
72000000 0.004576588748819401 0.016696154406620128 -0.04966125553210682 0.011276522278266612 0 0 0 0
73000000 0.00444492921576011 0.017046510075993 -0.049181401121746265 0.013556964742521454 0 0 0 0
74000000 0.004842946496588426 0.016483555573360134 -0.0482905245924227 0.015949501630143144 0 0 0 0
75000000 0.004999878303987301 0.017463273426301135 -0.047593373507612675 0.01819996336884722 0 0 0 0
76000000 0.0049906811576592445 0.01756598887509223 -0.04659229076767106 0.02051558415640326 0 0 0 0
77000000 0.004832313203265979 0.01798077321011343 -0.045665918068046846 0.022738631855733733 0 0 0 0
78000000 0.005458426621954778 0.018180584637491223 -0.04453783727574824 0.024867942740755485 0 0 0 0
79000000 0.005290335939293056 0.018274964087314525 -0.04328439446186805 0.0269868481212172 0 0 0 0
80000000 0.005616914916263761 0.01874035058129857 -0.04180298137451368 0.02909239224656581 0 0 0 0
81000000 0.005218047829208981 0.01894452175836463 -0.040416421084455485 0.0311053403847922 0 0 0 0
82000000 0.005533798214370346 0.019389151341926553 -0.03893293225093488 0.033032478056703764 0 0 0 0
83000000 0.005881156736317499 0.019324135068409038 -0.03731853281422012 0.03484393372534724 0 0 0 0
84000000 0.005930973717266513 0.019490348386112587 -0.03555476323795411 0.03670933293371714 0 0 0 0
85000000 0.0061376828695973995 0.020077766986540933 -0.033758161303687875 0.038348050252109016 0 0 0 0
86000000 0.0064508819232011 0.02012885205060134 -0.03190726315437497 0.03997438504721603 0 0 0 0
87000000 0.0063255420684896965 0.020571197336357615 -0.029924903728704332 0.041520945705985704 0 0 0 0
88000000 0.005920127889541249 0.020669852353099625 -0.02796870318138376 0.04290912364534666 0 0 0 0
89000000 0.006001231696381591 0.020545094300148954 -0.025817957387104885 0.04423114490730848 0 0 0 0
90000000 0.0063408449630074975 0.02116214145744904 -0.023688257216008816 0.0454582185427015 0 0 0 0
91000000 0.006542075217401619 0.020967238765378243 -0.021514123696972975 0.04657400670048282 0 0 0 0
92000000 0.006613993154127797 0.021306659912858704 -0.019261243892092474 0.047612570439646014 0 0 0 0
93000000 0.006979265212367547 0.021905713494281186 -0.017038523955684434 0.04849343689470868 0 0 0 0
94000000 0.006795584838892434 0.021878250953503157 -0.014604933403909297 0.04922947368548747 0 0 0 0
95000000 0.007057644224252588 0.022673603454225772 -0.012262833336390434 0.04986324332020958 0 0 0 0
96000000 0.006907713665416492 0.022686409369749777 -0.009900823048824881 0.050415048623908706 0 0 0 0
97000000 0.007065334249683877 0.023221979308014777 -0.0073415737204229345 0.050678076338010934 0 0 0 0
98000000 0.006894358821077289 0.02252924178350703 -0.004894082338556838 0.05103447175383012 0 0 0 0
99000000 0.007196834125617263 0.023537235642328427 -0.0025291438599423376 0.05132851210473165 0 0 0 0
100000000 0.007035072152397969 0.02289457304789551 0.0001869367114888124 0.051320362040900486 0 0 0 0
101000000 0.007522799947755039 0.023203557166528294 0.0026365024504172727 0.051163733239915514 0 0 0 0
102000000 0.007815811344502342 0.02375653811197296 0.005247650961420846 0.051004890178207286 0 0 0 0
103000000 0.007032827470555916 0.024304492523761292 0.007665600225266016 0.050609698185362935 0 0 0 0
104000000 0.00741030025503354 0.024072758181740157 0.01027127834350131 0.05026468592778651 0 0 0 0
105000000 0.007604215689278783 0.024343614466136684 0.01255602002482582 0.04960523914923823 0 0 0 0
106000000 0.008099291322455635 0.02488062749227121 0.015042585146238876 0.048897001728463424 0 0 0 0
107000000 0.007983630541850273 0.0250348304870464 0.017471600245242153 0.04809191748800717 0 0 0 0
108000000 0.007964225811575023 0.0255313366238411 0.019701984407556286 0.047205817233401406 0 0 0 0
109000000 0.007885085225823554 0.025704689263017572 0.022060442877681205 0.046092606036609036 0 0 0 0
110000000 0.007818805099309836 0.026004806280048393 0.024315597020844782 0.04488532527041351 0 0 0 0
111000000 0.008115873903707852 0.02623747169595383 0.026466550243090577 0.043640900975231996 0 0 0 0
112000000 0.007878456073143098 0.02629342233541305 0.028504518383008857 0.042290273367389934 0 0 0 0
113000000 0.00802590052810705 0.026704009648372922 0.0305947400391661 0.0407349503938155 0 0 0 0
114000000 0.0081985065284989 0.02689650435568906 0.0325518065403874 0.039205488625780584 0 0 0 0
115000000 0.008223017804216536 0.027495833594791717 0.03436012807260986 0.03755168853090318 0 0 0 0
116000000 0.008326090782168649 0.02774569416127285 0.0362165902320716 0.03578706721324764 0 0 0 0
117000000 0.008171449491010865 0.02756160636607037 0.03793701898366572 0.03381535029482213 0 0 0 0
118000000 0.008542425995130208 0.027715448620042604 0.03957308230799955 0.03183216064989608 0 0 0 0
119000000 0.00877065781409149 0.028463985894438146 0.04098636690338937 0.029780214721842058 0 0 0 0
120000000 0.008640991623690164 0.028655979321119195 0.04244769919171628 0.027711977696370568 0 0 0 0
121000000 0.008759378315098978 0.02865597242658749 0.04363267805374791 0.025575262938642696 0 0 0 0
122000000 0.008523005675195292 0.028716986191100805 0.04498770648060081 0.023328355613001433 0 0 0 0
123000000 0.008584228552745442 0.028854655287013167 0.0459707105150078 0.02098061905915028 0 0 0 0
124000000 0.009159413945817471 0.029294373774762576 0.04684107806985461 0.0187248697975229 0 0 0 0
125000000 0.008451067969016169 0.02975275495103485 0.04771586268121975 0.01628494888634953 0 0 0 0
126000000 0.008734212261068304 0.029660372389268122 0.048352994233526535 0.01388390339007525 0 0 0 0
127000000 0.008369534347821244 0.030329324993439395 0.04896338610069563 0.011466142107267574 0 0 0 0
128000000 0.009016933558588075 0.02997700098746566 0.04938504955559207 0.008997684153270936 0 0 0 0
129000000 0.00889670723340407 0.03091489007230368 0.049651293459216095 0.006527378954161921 0 0 0 0
130000000 0.008606504383517762 0.0312146131293656 0.049885549860380796 0.004005272179401361 0 0 0 0
131000000 0.008521167944282548 0.030936424375262183 0.049944627000488684 0.0014050056768893815 0 0 0 0
132000000 0.008706398172896009 0.03095893646163813 0.04989425659610868 -0.0009914178489458477 0 0 0 0
133000000 0.009556609932356906 0.03148161846236838 0.04969478697536011 -0.0035853912602903147 0 0 0 0
134000000 0.00964269084322087 0.03229719740146209 0.049338066761405126 -0.006027620474423421 0 0 0 0
135000000 0.008866738753825024 0.03228031592108663 0.048870965932045735 -0.008533519280013007 0 0 0 0
136000000 0.009216635337074938 0.032381694698732345 0.04823141694575973 -0.010907888012856335 0 0 0 0
137000000 0.008737158563010732 0.032544384891018685 0.047589776957491996 -0.013328998335576846 0 0 0 0
138000000 0.009606391966137086 0.03233953907642096 0.04673625818796819 -0.01564873024794771 0 0 0 0
139000000 0.009864736360602462 0.03298669996686332 0.04579111703219833 -0.01789918486937798 0 0 0 0
140000000 0.009244880263609168 0.0329723223944106 0.044688897536092474 -0.0201418827353839 0 0 0 0
141000000 0.0094671954860338 0.03346997396649852 0.043413859961842244 -0.02228732435377621 0 0 0 0
142000000 0.009938933841293025 0.03361784403403434 0.04216833268976588 -0.02434837965805773 0 0 0 0
143000000 0.010056444071587997 0.03420225859635065 0.04083953304432729 -0.026406302455701584 0 0 0 0
144000000 0.010549413913182159 0.03411189058614488 0.03933434123540591 -0.02825595463511935 0 0 0 0
145000000 0.008979561843767518 0.03407007530068039 0.03776091566656758 -0.030255123643512 0 0 0 0
146000000 0.009383757301184785 0.03415832427465901 0.035961300359709236 -0.03196503915378806 0 0 0 0
147000000 0.008864393659969752 0.03488776909317386 0.03422179820663078 -0.033682772650255446 0 0 0 0
148000000 0.009328897307058165 0.03515383182025186 0.03245373766622254 -0.03522218352262949 0 0 0 0
149000000 0.009862975070133641 0.03555179719743807 0.03052350731078148 -0.03678509826455616 0 0 0 0
150000000 0.009652932768556945 0.035240977365009536 0.028628355922315735 -0.03811476390050759 0 0 0 0
151000000 0.00983430243891038 0.035884502008083664 0.026536388693367895 -0.03955809112427785 0 0 0 0
152000000 0.010109245708692476 0.035954299745507734 0.0243166238988333 -0.04063112593949207 0 0 0 0
153000000 0.009646642209292802 0.03607936111293458 0.02223254310137089 -0.04150771377080635 0 0 0 0
154000000 0.009695262993132359 0.036385679756515396 0.020010655195265556 -0.042271835580625375 0 0 0 0
155000000 0.010354465420372692 0.03597572618845053 0.0179031331104565 -0.0433449090183723 0 0 0 0
156000000 0.009666328107453076 0.03674459870556328 0.0157549105395743 -0.043802541961053265 0 0 0 0
157000000 0.010926296269296561 0.036872803861869724 0.01336148327597937 -0.044578075780991856 0 0 0 0
158000000 0.010435941861622482 0.03617815184554807 0.010935794181645472 -0.044866825128607596 0 0 0 0
159000000 0.01018772514925448 0.037287581632499886 0.008720073836134212 -0.04524847325043019 0 0 0 0
160000000 0.009588360657176848 0.036729588689354616 0.006519508658250846 -0.0454102652595947 0 0 0 0
161000000 0.010217389111279663 0.03735027641536776 0.00398223352184376 -0.04544250100382181 0 0 0 0
162000000 0.010598633526049622 0.03759070412777725 0.0015878228067823803 -0.04554966145952011 0 0 0 0
163000000 0.010235396675615276 0.038081273341772304 -0.0005914801797829998 -0.04540653844653623 0 0 0 0
164000000 0.010278006447839416 0.03855505909458698 -0.002591210038500099 -0.04523179058631089 0 0 0 0
165000000 0.010647501859978552 0.03866690972143379 -0.004840813169072973 -0.044758512272989034 0 0 0 0
166000000 0.010434142219986214 0.03924160084981498 -0.007146509336711899 -0.04422008016095339 0 0 0 0
167000000 0.010926624417465811 0.038419205080054794 -0.009296065316168113 -0.043640837649474185 0 0 0 0
168000000 0.011101497272039015 0.03976736658558995 -0.01160406810293393 -0.042777677260358055 0 0 0 0
169000000 0.010520691097545113 0.039385840755602565 -0.013475950513992165 -0.04190420406312416 0 0 0 0
170000000 0.011098853428048628 0.039092687721382 -0.01540290702055136 -0.04094333069076275 0 0 0 0
171000000 0.010324012220207181 0.03967150276005601 -0.017643940784244253 -0.04005734897687927 0 0 0 0
172000000 0.011207251267106208 0.040886816328413796 -0.019487213783302284 -0.038906352360911 0 0 0 0
173000000 0.01117930403715326 0.040151537895671476 -0.021288979704221427 -0.037848679490425884 0 0 0 0
174000000 0.010882282892469309 0.03993759653860717 -0.023011779078911068 -0.03647295204972942 0 0 0 0
175000000 0.010977844534240761 0.040534805831405854 -0.02470980732645646 -0.03516178344817612 0 0 0 0
176000000 0.011274682894678872 0.041375457978077027 -0.026052332628256687 -0.03370991368215124 0 0 0 0
177000000 0.010618976121230207 0.04134045723626345 -0.027719736525417808 -0.03231082685779989 0 0 0 0
178000000 0.011436630506412996 0.040878762779363684 -0.029195484957871155 -0.030555705526398032 0 0 0 0
179000000 0.011290902433695628 0.041599774001450554 -0.03037203739023998 -0.028926315000298207 0 0 0 0
180000000 0.01118285196626607 0.04110179048802866 -0.03165193577366617 -0.02728631182492927 0 0 0 0
181000000 0.011803116018654688 0.04178253703184629 -0.032798593102178045 -0.02546843186723157 0 0 0 0
182000000 0.011087786642890465 0.042032400356816664 -0.03382252906323746 -0.02382470771465726 0 0 0 0
183000000 0.011619672647966676 0.0419400195424659 -0.03484809799135249 -0.021808875972926873 0 0 0 0
184000000 0.010975107750393042 0.04257281355480141 -0.03565480548883356 -0.020014429959449055 0 0 0 0
185000000 0.01152495745051955 0.04230646774336512 -0.03623003880182206 -0.018205334299834973 0 0 0 0
186000000 0.011993975827526392 0.04306068822498208 -0.0369733863837645 -0.01620731948856582 0 0 0 0
187000000 0.010589771909041637 0.0425734419268576 -0.03748394196501478 -0.014168056712050778 0 0 0 0
188000000 0.011780544061517755 0.04290471848927363 -0.03784785175172724 -0.012447435526837004 0 0 0 0
189000000 0.011218965883068947 0.04385005235872619 -0.03824434212333379 -0.010396157687231128 0 0 0 0
190000000 0.011886885469571054 0.043455282873417975 -0.03837999511283259 -0.00853796821798372 0 0 0 0
191000000 0.011812967255075812 0.043398268842813954 -0.03855736985758697 -0.006531384356516166 0 0 0 0
192000000 0.013024019483602494 0.044647347827243736 -0.0387282769188525 -0.004526171539441756 0 0 0 0
193000000 0.01204631819888661 0.04449777448985155 -0.038644073003812104 -0.0028130493073268803 0 0 0 0
194000000 0.012163388784892315 0.04472972337738709 -0.038473248326077944 -0.0007737988555004577 0 0 0 0
195000000 0.01161238110397733 0.0446085674181906 -0.03818941994905975 0.0010501295164893748 0 0 0 0
196000000 0.012003537022728966 0.04525453953299813 -0.03800209626254864 0.002901097448613918 0 0 0 0
197000000 0.01271806979696297 0.04481951008277325 -0.03771077449013445 0.004731839031904346 0 0 0 0
