# HZ S RI R 50
1000000 -0.0007193534912688803 0.00023308520256606658 0.047973545010994226 -0.003262958690198233 0 0 0 0
2000000 -0.0006417503078224488 0.00046794923510884337 0.04949203736460312 -0.004232397268650285 0 0 0 0
3000000 -0.0004447650688695211 0.001282461650227108 0.04923234699945119 -0.006560978540054496 0 0 0 0
4000000 0.00010523333021842937 0.0012670323481725543 0.04883563381333995 -0.008823517000143702 0 0 0 0
5000000 0.00031850664909607564 0.0014314166284129259 0.048335121030980484 -0.011019318531999008 0 0 0 0
6000000 0.0003803291053021488 0.0015873403492015245 0.047647503637679216 -0.013157164365262562 0 0 0 0
7000000 4.331732424535191e-05 0.0018351524412389215 0.04694950646496665 -0.015206096510920659 0 0 0 0
8000000 0.00016257553385055172 0.0023958396785721927 0.04622041029011964 -0.01722204602245119 0 0 0 0
9000000 0.00021222450649795082 0.002488207126039365 0.045426963068386464 -0.019118706530847084 0 0 0 0
10000000 0.00029837426751920873 0.0028611761236049015 0.04455435355691332 -0.021123193851552632 0 0 0 0
11000000 0.00012733589240254025 0.0030978671699831324 0.04360489795984439 -0.022985634902581716 0 0 0 0
12000000 0.0006182738960399824 0.003383692138280409 0.04261836095248315 -0.024956738463841416 0 0 0 0
13000000 0.0002923119551512502 0.0035408602883126826 0.04161266310808867 -0.026804825385934657 0 0 0 0
14000000 0.00041629312960751567 0.003580087766985484 0.04038057375643709 -0.028636674345413442 0 0 0 0
15000000 0.0009489844172679125 0.003913322817246113 0.039090615585243266 -0.030405237434347 0 0 0 0
16000000 0.0010540213709519003 0.0040247284965114595 0.03777322944305036 -0.032234322875313 0 0 0 0
17000000 0.0005541311024535964 0.004808543847440275 0.03635732045477059 -0.033875675663837194 0 0 0 0
18000000 0.0010997499486309007 0.004282804554024193 0.03484895361101084 -0.03553459576391227 0 0 0 0
19000000 0.0009231356662188258 0.005117932541630753 0.033287502597741166 -0.037123643492201146 0 0 0 0
20000000 0.0006971343279994438 0.0050098323918959 0.03154924838582782 -0.038589508085586935 0 0 0 0
21000000 0.001199413459049189 0.0053718534038213386 0.029790550866986235 -0.040101527800018265 0 0 0 0
22000000 0.00111063579619115 0.004916709311302575 0.028014736095424934 -0.041384272540802194 0 0 0 0
23000000 0.0008899681238204808 0.005802200283381662 0.026154474880769295 -0.042717309100195965 0 0 0 0
24000000 0.0012476902543934647 0.006170685743995048 0.024161544209506516 -0.04381914578035323 0 0 0 0
25000000 0.0008704823170470333 0.006278163741019055 0.022201916872299342 -0.044934299411506416 0 0 0 0
26000000 0.0013004788099801666 0.006315153282148118 0.020152773636749888 -0.04599129864395043 0 0 0 0
27000000 0.0011806103914023302 0.006586011666145952 0.018085566508669177 -0.04689262996693213 0 0 0 0
28000000 0.0015980917840001795 0.006848599663036178 0.015848618318621232 -0.04765120951815904 0 0 0 0
29000000 0.0014325386991065666 0.007014563832850749 0.013730958645429926 -0.04840474806634464 0 0 0 0
30000000 0.0015877816387880744 0.007175571758806833 0.01148962562172116 -0.04902861928645892 0 0 0 0
31000000 0.0016258822198655875 0.007467289846543292 0.00934303904296781 -0.04956643184523503 0 0 0 0
32000000 0.0016541031046402332 0.007905707404385252 0.0070020058344061505 -0.04994278841846667 0 0 0 0
33000000 0.0015379286920241687 0.007908805900108859 0.0047689898567934465 -0.050288673590848744 0 0 0 0
34000000 0.0015738167682328033 0.008342811846319555 0.0025400798963173222 -0.0505080996932482 0 0 0 0
35000000 0.0016497681802466503 0.008451546484086879 0.0002126044228739744 -0.05057959610353783 0 0 0 0
36000000 0.0022075633764945704 0.008408416915545265 -0.002141172035723978 -0.05062686443808264 0 0 0 0
37000000 0.0016514769781441653 0.00844277288771405 -0.004374914547049884 -0.05052789362643914 0 0 0 0
38000000 0.002100113350162949 0.008597490445541965 -0.006683080794760103 -0.05027109608286519 0 0 0 0
39000000 0.001716934508280723 0.009016617130975032 -0.008990131631551428 -0.04997647298345817 0 0 0 0
40000000 0.002528309223970722 0.009316790722966808 -0.011274726991298561 -0.0495096242244576 0 0 0 0
41000000 0.0024842989074120993 0.00954242909021571 -0.013424878310953963 -0.049169899342564174 0 0 0 0
42000000 0.002353507800579056 0.009973910391751774 -0.015881838790135685 -0.04843496152647495 0 0 0 0
43000000 0.0020397081771894305 0.00958847382381219 -0.017995483788830285 -0.04770930374764186 0 0 0 0
44000000 0.0022790877997911187 0.010411666198835533 -0.02016688458036993 -0.04693184945627008 0 0 0 0
45000000 0.002210825571306566 0.010432805708358434 -0.022305094591247982 -0.04596309089942925 0 0 0 0
46000000 0.0021006489577048274 0.010725541080333826 -0.024435237850383294 -0.0449595763112833 0 0 0 0
47000000 0.0022608349863785715 0.010575878508599847 -0.026510582504127723 -0.04384606799915555 0 0 0 0
48000000 0.0027715066868373665 0.010822773507071507 -0.02850092109571838 -0.042585531061270346 0 0 0 0
49000000 0.002860806151983316 0.011406867086869306 -0.03036171998260438 -0.04143781832518144 0 0 0 0
50000000 0.0031222316526945456 0.0117860598364844 -0.03235793759421145 -0.040021354443382465 0 0 0 0
51000000 0.0030600881571437887 0.011738759200420166 -0.03421160016089129 -0.03853353321270901 0 0 0 0
52000000 0.0030180698717962168 0.012065443384995557 -0.03592353159007881 -0.037044158902067144 0 0 0 0
53000000 0.0030044202577797635 0.012318789246214936 -0.03762356405586052 -0.03537608921098985 0 0 0 0
54000000 0.0034280064215680005 0.012251003039652377 -0.039365404019443606 -0.03357527628745976 0 0 0 0
55000000 0.0030982552895902813 0.012418441461496338 -0.04077017924445206 -0.03187620069726617 0 0 0 0
56000000 0.0034146277796442965 0.01325773469133916 -0.042328121460264115 -0.029963285675087083 0 0 0 0
57000000 0.0036423519789735856 0.013244527730637288 -0.043618449003209714 -0.028018501656514885 0 0 0 0
58000000 0.0035456109869856024 0.013256765569354144 -0.0449608206462468 -0.02604483052989297 0 0 0 0
59000000 0.0034712082327090386 0.013557476362792444 -0.04619826974843017 -0.023990058605657245 0 0 0 0
60000000 0.0036393085287962455 0.014191128407673231 -0.047277357203136715 -0.02186687329149882 0 0 0 0
61000000 0.004082617266815473 0.013514143506807007 -0.04839507410974134 -0.019689410735358483 0 0 0 0
62000000 0.003626888012721749 0.014232914680594646 -0.04932859806535114 -0.017441167462666284 0 0 0 0
63000000 0.003915870912008336 0.014108706923310786 -0.050178679810615454 -0.015196836910816606 0 0 0 0
64000000 0.004045860476338895 0.014975499489716522 -0.05068402627329571 -0.012850177488916176 0 0 0 0
65000000 0.004252281507562501 0.014847539676448605 -0.051361472152917385 -0.010587592115014303 0 0 0 0
66000000 0.003888865980568588 0.015001654423121695 -0.05201564845978371 -0.008191054373072408 0 0 0 0
67000000 0.004349975856863296 0.01582067681360236 -0.05228787275975825 -0.0056890426939652915 0 0 0 0
68000000 0.003985717047375755 0.01568391998150101 -0.05264115353499597 -0.003293631068351241 0 0 0 0
69000000 0.004318468204517621 0.015539837541526835 -0.05291686831283215 -0.000929022424314774 0 0 0 0
70000000 0.004340633837116631 0.01568408553345931 -0.0528607967167865 0.0015109840674549686 0 0 0 0
71000000 0.00418272202271541 0.01624103742806294 -0.05274891921909408 0.004071142160822001 0 0 0 0
72000000 0.004168194896739838 0.016236554319209645 -0.05264126281638162 0.00647924093180067 0 0 0 0
73000000 0.004763940001037019 0.016674808281765947 -0.05247436399769955 0.008908288810939228 0 0 0 0
74000000 0.005145254772501725 0.015862137462511805 -0.05183746933243973 0.011389029844137519 0 0 0 0
75000000 0.004968021903102677 0.01698163246070563 -0.05148860698404744 0.013836134403189038 0 0 0 0
76000000 0.004881368080131666 0.01735990798162933 -0.05084227710997942 0.01631820743805656 0 0 0 0
77000000 0.004670136487931484 0.01754325535615997 -0.050143466376289025 0.018702749503123776 0 0 0 0
78000000 0.005061310736043858 0.01767982759114317 -0.04928780514644982 0.021005433933874496 0 0 0 0
79000000 0.005032763738025611 0.01823503353045998 -0.048319037058425766 0.023330136541071533 0 0 0 0
80000000 0.005322519987281541 0.018036987395321023 -0.047170264841974126 0.02569703718061812 0 0 0 0
81000000 0.005338971089083022 0.018332154829963577 -0.0459981945133342 0.027912635251330753 0 0 0 0
82000000 0.005454745612976125 0.01860327985154682 -0.04469442214800138 0.030111517993482797 0 0 0 0
83000000 0.005548032350981709 0.01850405969058064 -0.04336938287483259 0.032206496687645095 0 0 0 0
84000000 0.005351045003854222 0.018974214604565446 -0.0418234665269371 0.03430290467455236 0 0 0 0
85000000 0.005839180169953272 0.019201120973163056 -0.04023273628058974 0.036320578320059235 0 0 0 0
86000000 0.005897704452367621 0.01990026908378523 -0.03852753825558754 0.03828097297704694 0 0 0 0
87000000 0.0059213499287430315 0.02026965177187573 -0.03681358947555724 0.04011888219684469 0 0 0 0
88000000 0.006032784331471325 0.020050601998593112 -0.03491354101766951 0.04186093419078454 0 0 0 0
89000000 0.006444948525013894 0.020234516720748868 -0.033008568883210236 0.04361843121097971 0 0 0 0
90000000 0.006641897760013785 0.020545230276430036 -0.030911180280341278 0.04521772767833169 0 0 0 0
91000000 0.0065953289196452195 0.020649314220586558 -0.028869829868631527 0.046678391651475595 0 0 0 0
92000000 0.0066636162731765515 0.021094581821595616 -0.026720078287952427 0.04809783042420266 0 0 0 0
93000000 0.006431542535209568 0.021249798310381356 -0.02441162710930089 0.049335184621110056 0 0 0 0
94000000 0.006689030014548095 0.021054397731955873 -0.022086732228439102 0.05053436183257937 0 0 0 0
95000000 0.006885823427885475 0.022019055326119228 -0.019709149111493324 0.051591084211048514 0 0 0 0
96000000 0.006885721750583017 0.02206951086507143 -0.017351301629189183 0.05259815077570338 0 0 0 0
97000000 0.00702793087845763 0.02279858501608429 -0.014815027554196317 0.0533817713629059 0 0 0 0
98000000 0.006828633084189032 0.02215188434249478 -0.012231947224510105 0.05426414327323453 0 0 0 0
99000000 0.006754783173993071 0.023072548865527554 -0.009674047197884412 0.054838506345340855 0 0 0 0
100000000 0.006979464629492304 0.02248127334666009 -0.0069331381809713075 0.055331510911110576 0 0 0 0
101000000 0.006784076628657289 0.02283426501074268 -0.004308998353871674 0.05569939390678203 0 0 0 0
102000000 0.007415895407202473 0.022950638847071277 -0.0014719392446732335 0.05585477043162862 0 0 0 0
103000000 0.007132341761782744 0.023835733802562344 0.0011689794398173625 0.05604428912565244 0 0 0 0
104000000 0.0070630531828721095 0.02387029816629351 0.003964236642577224 0.05609009001756454 0 0 0 0
105000000 0.00687977062612606 0.0240147851376313 0.006628721096422098 0.05577978145233797 0 0 0 0
106000000 0.007399459684708325 0.0239884666964786 0.009289830798160963 0.05544731528579527 0 0 0 0
107000000 0.00759186782097223 0.024016095512105762 0.012124439774610498 0.0550573990751357 0 0 0 0
108000000 0.007428850576001647 0.025265545234137453 0.01459296646270423 0.05458436542295685 0 0 0 0
109000000 0.007496283200948042 0.02560414284793167 0.017352315873839848 0.053761839568341935 0 0 0 0
110000000 0.007327309011331693 0.02536952301264269 0.020027902494925857 0.052859908687207184 0 0 0 0
111000000 0.007709793713497077 0.025560083795208206 0.022643490481763624 0.051987516170221106 0 0 0 0
112000000 0.007487771140059708 0.02572754531739056 0.02509436495660288 0.05090199871571288 0 0 0 0
113000000 0.007785798592918692 0.02575545575821395 0.027704196091261492 0.04958708496837635 0 0 0 0
114000000 0.007892287044564813 0.02632333653865293 0.030086090996056303 0.048319136886079 0 0 0 0
115000000 0.008277123587720031 0.026863903247237916 0.03243427479128193 0.046859781949776795 0 0 0 0
116000000 0.00821721365145463 0.027300396221734573 0.034880611192715454 0.04525368069774972 0 0 0 0
117000000 0.00774527918402367 0.026960699400531894 0.03705667037881694 0.043430515191087884 0 0 0 0
118000000 0.008071266851857953 0.027078905573349996 0.03923873106593197 0.04158080653272864 0 0 0 0
119000000 0.00853508568086845 0.027698353693379522 0.04129501223346716 0.03964172834402592 0 0 0 0
120000000 0.008415960862590905 0.027684507630904763 0.04321049521803328 0.0375938235876427 0 0 0 0
121000000 0.008382238359242181 0.02820829015103131 0.0450551936386059 0.035379157659320516 0 0 0 0
122000000 0.007944357243316913 0.028458671878163484 0.04702562428439701 0.03307786428727408 0 0 0 0
123000000 0.00805251783018932 0.028268366917012767 0.048552558581081956 0.0307636934529317 0 0 0 0
124000000 0.008691981866144028 0.028211886480104562 0.050013811518871465 0.028359776065215628 0 0 0 0
125000000 0.008548351845188953 0.029081337957397722 0.051456198352388065 0.025800393896584617 0 0 0 0
126000000 0.008750798352487196 0.029244291822199935 0.05270338719104818 0.023272967168683264 0 0 0 0
127000000 0.008111403165489686 0.03000967776300114 0.05384012468174286 0.020561649013622806 0 0 0 0
128000000 0.008597810150453144 0.029174713990895745 0.05485500926774366 0.017889135438909486 0 0 0 0
129000000 0.009011481879946853 0.030221020662143352 0.05571835774214474 0.015198347326198496 0 0 0 0
130000000 0.00859964716144867 0.03077863858690381 0.05647025683900751 0.012308657485435238 0 0 0 0
131000000 0.008402329614501906 0.03074302907990114 0.0570280373790385 0.009340535064566034 0 0 0 0
132000000 0.008592708739576769 0.030311692815877832 0.05752719832067658 0.00655251763581267 0 0 0 0
133000000 0.008803026598049142 0.030359646570967503 0.05779741248830621 0.0035529843239449632 0 0 0 0
134000000 0.009412803087260072 0.031147852783170366 0.057863732224968274 0.0006888671957972638 0 0 0 0
135000000 0.009223571995585258 0.03177547176682364 0.057771779378115014 -0.002287137837665159 0 0 0 0
136000000 0.008981728497876143 0.03166856414007926 0.05763640344073593 -0.0052000870482483315 0 0 0 0
137000000 0.008460589669155057 0.03212298164168389 0.05737867116058753 -0.008222147606487186 0 0 0 0
138000000 0.008997786495511136 0.031418641147785684 0.0567696969756006 -0.011150344751146488 0 0 0 0
139000000 0.009594915391533098 0.0319323203285388 0.05620178287859343 -0.013918026530465664 0 0 0 0
140000000 0.008725711540924715 0.032294751794723076 0.055326645055421564 -0.016727922096626473 0 0 0 0
141000000 0.009619693557005248 0.03293439821554979 0.0542885148322367 -0.019522184530632657 0 0 0 0
142000000 0.008836712564269059 0.03247325066143139 0.05314364161130458 -0.02228576441753275 0 0 0 0
143000000 0.009812017684718554 0.03308516842021969 0.05196508633069022 -0.025034730121186198 0 0 0 0
144000000 0.009830992420928986 0.032336101275427714 0.05050214075275314 -0.027563984429263094 0 0 0 0
145000000 0.008944609133607912 0.03404263853430835 0.04911011137808154 -0.030321443906445075 0 0 0 0
146000000 0.008935983156399426 0.03318347460615583 0.04746311194923485 -0.032511049444030445 0 0 0 0
147000000 0.008137806017594475 0.03429427294303002 0.04552606122347739 -0.03509868704918549 0 0 0 0
148000000 0.009166026711032548 0.034264065201418975 0.043838313354992386 -0.037263732762216936 0 0 0 0
149000000 0.009351373589652082 0.03459028196057566 0.04165196951147797 -0.039518819688166375 0 0 0 0
150000000 0.009526742276535665 0.03436697682731848 0.03961575062968516 -0.04149126576077399 0 0 0 0
151000000 0.009592798244611744 0.035127002844841465 0.037410495332909015 -0.04350288836008567 0 0 0 0
152000000 0.01014184711417432 0.03567996982851816 0.03488796143111261 -0.045211705216622516 0 0 0 0
153000000 0.009025524755120912 0.03516560719692728 0.032467108657234574 -0.04694586748262422 0 0 0 0
154000000 0.009761096465900699 0.03564757069338692 0.030020178561323614 -0.048351324236709264 0 0 0 0
155000000 0.009143218112318946 0.035756895555434154 0.027516134893326542 -0.04989654039204169 0 0 0 0
156000000 0.009449674597041737 0.03573906013200878 0.02469642168316297 -0.05113241560048341 0 0 0 0
157000000 0.010220229142045647 0.03631580221764421 0.022062181544005487 -0.052105526404863135 0 0 0 0
158000000 0.009846203450009255 0.03641332676672113 0.019111252931032132 -0.05303192012718359 0 0 0 0
159000000 0.009275103146487834 0.03666026941998804 0.016382088642091994 -0.0539805811049518 0 0 0 0
160000000 0.009436626533095507 0.03627891448647974 0.013670536181633802 -0.05462103536104087 0 0 0 0
161000000 0.010118017922909275 0.03668267719625058 0.01051830107102178 -0.054949376834164204 0 0 0 0
162000000 0.009341683972645618 0.03726154287322783 0.007674781786121258 -0.055537962995335054 0 0 0 0
163000000 0.009937276470993463 0.03779951130204746 0.004830648132737232 -0.05555404702864906 0 0 0 0
164000000 0.010204077550699624 0.03725509909235249 0.0020885189063571284 -0.05572778253357231 0 0 0 0
165000000 0.010464462540934315 0.037607813858812435 -0.000970067430099753 -0.055567124933968245 0 0 0 0
166000000 0.010150030300002166 0.03821449666682146 -0.003976135718938561 -0.055278656495014684 0 0 0 0
167000000 0.010987553402581814 0.03765161808090187 -0.006488051143504896 -0.054856599482458426 0 0 0 0
168000000 0.010609554485813553 0.038718938706251774 -0.00961481398821486 -0.0543221690532755 0 0 0 0
169000000 0.009859249783678466 0.03843754909672555 -0.012218077332719512 -0.05333229290001605 0 0 0 0
170000000 0.010818673804468831 0.03824038450356647 -0.014796261828658862 -0.052486943280365454 0 0 0 0
171000000 0.010211385911251732 0.03903982753240336 -0.017626873282529452 -0.05135637812351102 0 0 0 0
172000000 0.010281814930771946 0.03983133392371155 -0.020171250645916915 -0.05039765416276278 0 0 0 0
173000000 0.010320388149202676 0.03875804789759301 -0.022598837776450678 -0.04891963317514119 0 0 0 0
174000000 0.010861635010068163 0.03889062549385835 -0.02514740277828979 -0.047525219337530795 0 0 0 0
175000000 0.01038834517074356 0.03978899260980937 -0.02741344916411127 -0.04601220133503416 0 0 0 0
176000000 0.010602805431301501 0.03996303765213115 -0.0295362492482348 -0.04459214964883765 0 0 0 0
177000000 0.010664137013819647 0.04089775545171253 -0.03178874283656493 -0.04260154040632367 0 0 0 0
178000000 0.011020866466048187 0.04009858868887838 -0.033734710923867206 -0.0405469076843152 0 0 0 0
179000000 0.010733306582388597 0.04025388099969412 -0.03560556838835555 -0.0386625662337128 0 0 0 0
180000000 0.010901826088144842 0.04059561556960845 -0.03750346768092267 -0.03652108508503378 0 0 0 0
181000000 0.011200657667015201 0.04076438399424888 -0.03917746376762488 -0.03446603410742715 0 0 0 0
182000000 0.01093309723579806 0.04160786266060452 -0.04070866708169109 -0.03218701130025591 0 0 0 0
183000000 0.011443281056217617 0.0417699580768849 -0.04206907499865258 -0.02993517514338337 0 0 0 0
184000000 0.010655147634900304 0.04138798638440202 -0.043240612884016615 -0.027626659064596153 0 0 0 0
185000000 0.010956527819089876 0.04200991186255014 -0.044315210777534315 -0.02519124839809438 0 0 0 0
186000000 0.011886264347521113 0.04215967894479798 -0.04534752367559813 -0.022732905712498485 0 0 0 0
187000000 0.01002636913742413 0.04203273595956232 -0.04630803691282768 -0.02020053691038109 0 0 0 0
188000000 0.01175676278551886 0.04149973299785539 -0.04701655516910585 -0.017848296336883424 0 0 0 0
189000000 0.010838176001104817 0.043005076624125 -0.04766651529557928 -0.015205152741025737 0 0 0 0
190000000 0.01155094699650124 0.04254453734125793 -0.04805202630054412 -0.012855954113878118 0 0 0 0
191000000 0.010756461787170395 0.04269099648918849 -0.04836345796015709 -0.010144755494732986 0 0 0 0
192000000 0.012515469423628347 0.043343597383539614 -0.04847910366202168 -0.0077198578139328145 0 0 0 0
193000000 0.011888616144338183 0.04368414830469119 -0.04849938377993916 -0.005168582419573093 0 0 0 0
194000000 0.011269013839578124 0.04345373588314674 -0.04854391795891962 -0.0025746923442429522 0 0 0 0
195000000 0.011102210450887013 0.044042948305134735 -0.04806736372285317 -7.770515230448643e-05 0 0 0 0
196000000 0.011703157547883567 0.043868985249693085 -0.04798277420152492 0.002266452059166702 0 0 0 0
197000000 0.01196757369363482 0.04388432483303921 -0.04755151907953429 0.0044413593265061335 0 0 0 0
