# HZ S RI R 50
1000000 -0.0005773489886196739 0.0007285970237015431 0.04774155249898131 -0.0032363705912208393 0 0 0 0
2000000 -0.0002315699077808252 0.00040922943423180665 0.04922832983353989 -0.004038693567390497 0 0 0 0
3000000 -6.4349197531442e-05 0.00108891990158504 0.04901544764770268 -0.0063620158674701395 0 0 0 0
4000000 0.00020393069379852474 0.000870302769771368 0.048691364206874775 -0.008551744418130064 0 0 0 0
5000000 0.0002654419504970782 0.001525350045292536 0.048180794681642325 -0.010661680123047681 0 0 0 0
6000000 0.0001627423707210968 0.0024470906676449665 0.0475137267745724 -0.012801551777122845 0 0 0 0
7000000 0.0003661266996889398 0.0023430806674264613 0.04686683692938615 -0.014714319427901702 0 0 0 0
8000000 0.0005380097527686266 0.00269482413086293 0.04619246711643967 -0.016691842468635403 0 0 0 0
9000000 0.0009361879817045928 0.0023281742562232515 0.04538986870173666 -0.018570055628726233 0 0 0 0
10000000 8.111216839393793e-05 0.0028337966085984745 0.044593201428140786 -0.02050033201982306 0 0 0 0
11000000 0.0002336652048220916 0.00268654755539483 0.04368490130006996 -0.02226356449535385 0 0 0 0
12000000 0.0009544769204607223 0.0033919672334904788 0.042780567839947055 -0.02419216746288607 0 0 0 0
13000000 0.0006788206332965825 0.003304370916343035 0.04185782316650757 -0.02594358028664133 0 0 0 0
14000000 0.000589887482093543 0.003804192375279755 0.040692936563465225 -0.027853630955965897 0 0 0 0
15000000 0.0010433760117873959 0.003502693899107506 0.03952975352319956 -0.02953590861381719 0 0 0 0
16000000 0.001336871823978133 0.003895842588947583 0.03826060913415954 -0.03134400691777887 0 0 0 0
17000000 0.0006876214542830774 0.004775792806346361 0.036942984763360644 -0.032921914806113534 0 0 0 0
18000000 0.001452987877284145 0.004135407342134627 0.035523042972325614 -0.03458723592911036 0 0 0 0
19000000 0.0010471895972390094 0.005029628650386936 0.03399126302009102 -0.036210408648934024 0 0 0 0
20000000 0.0010516232239968389 0.004974845278319084 0.032444378338964186 -0.03763799018182799 0 0 0 0
21000000 0.0015136526623826462 0.005282575972263554 0.030726138426970428 -0.03912114809107112 0 0 0 0
22000000 0.0012892962410898487 0.005492338228402225 0.028999486868569357 -0.0403977668276304 0 0 0 0
23000000 0.0011927998880226513 0.005551230323413398 0.027253276674651803 -0.041797345910257605 0 0 0 0
24000000 0.0014520412670027644 0.005922203422096173 0.025426286498228073 -0.04297830356648176 0 0 0 0
25000000 0.0011502176125645046 0.006108647542164779 0.023546405730524942 -0.04406498541918503 0 0 0 0
26000000 0.0017357614605538092 0.006412030210404281 0.021604668439416042 -0.04525303203357024 0 0 0 0
27000000 0.0015467655231658688 0.0065210830150495 0.01958727382564153 -0.04609146099745402 0 0 0 0
28000000 0.0020563330927581207 0.006884016503351956 0.017469743139731705 -0.04693886847796414 0 0 0 0
29000000 0.001769912230857212 0.007055912648919367 0.015453702703505122 -0.04781661870379673 0 0 0 0
30000000 0.0018546292956230753 0.006991389942883292 0.013268232736816063 -0.04842464791766172 0 0 0 0
31000000 0.001923819924480716 0.007536700288918041 0.011213458354916253 -0.049059434615211436 0 0 0 0
32000000 0.0015436534100527668 0.007774396031539497 0.00899970677380601 -0.049572871433940305 0 0 0 0
33000000 0.0016298165415930925 0.008274988218127713 0.006824097026964949 -0.04989247458850429 0 0 0 0
34000000 0.002083810528724881 0.00806397733041659 0.004625689328478674 -0.05031615127582058 0 0 0 0
35000000 0.002158054855697229 0.00857135446456437 0.002409415613577133 -0.05048799576488632 0 0 0 0
36000000 0.002160531328299719 0.0085393972518169 0.00013336915192107285 -0.05056833123604811 0 0 0 0
37000000 0.002227340988960533 0.008733723701781358 -0.0020438058828805635 -0.050575183853157187 0 0 0 0
38000000 0.0022473394083149505 0.008849279479868036 -0.00434981069775242 -0.050483395107989146 0 0 0 0
39000000 0.0019244506920832298 0.009027283539565115 -0.0065535503899740565 -0.05027522867029859 0 0 0 0
40000000 0.002569531362977 0.009320090518548308 -0.008886373440944933 -0.049903087227733026 0 0 0 0
41000000 0.0025862406668070537 0.009132907043672004 -0.011069857266480118 -0.04960326881262186 0 0 0 0
42000000 0.0029751537431782446 0.010277762190592057 -0.013424186936420909 -0.04917691648800931 0 0 0 0
43000000 0.0022448264640918276 0.009692350323066165 -0.015512190995775539 -0.04850140095253712 0 0 0 0
44000000 0.0025607585668076128 0.010397750908316704 -0.017637323198675697 -0.0479251768207392 0 0 0 0
45000000 0.002537062544832545 0.010351384358389714 -0.019780559001836978 -0.04714439574332511 0 0 0 0
46000000 0.0025115904043213804 0.010439136282485297 -0.02190533759826188 -0.04628135268414872 0 0 0 0
47000000 0.003209094412558766 0.0103961322271488 -0.02395439329964046 -0.04534027901329842 0 0 0 0
48000000 0.0033532478598597253 0.010725322685188774 -0.025998096845034974 -0.044222699231049024 0 0 0 0
49000000 0.0031823639971653526 0.011098135603505413 -0.02789315977580521 -0.043182580849550734 0 0 0 0
50000000 0.003309029425514325 0.011586673669926256 -0.029904036945644804 -0.041974543441361346 0 0 0 0
51000000 0.003313806584893701 0.011982057317748224 -0.031775971107258966 -0.04058600073905245 0 0 0 0
52000000 0.003337300409271218 0.011761547951689972 -0.033603619670450204 -0.03923985749580805 0 0 0 0
53000000 0.0034850188800485023 0.0124589837028106 -0.03537670978862239 -0.03778166465636283 0 0 0 0
54000000 0.003595825646168302 0.011974117381282378 -0.03715650537350093 -0.03618807754222293 0 0 0 0
55000000 0.0033517240053949605 0.01264319160832892 -0.038718708957233054 -0.034580213979109105 0 0 0 0
56000000 0.0038505122784719624 0.013491363267926939 -0.04033242223184737 -0.0328190173620662 0 0 0 0
57000000 0.0038341462204259727 0.01320054121110698 -0.04169228625907773 -0.03107034414702789 0 0 0 0
58000000 0.004108684552847599 0.01339620526692471 -0.04318446627515533 -0.02915224586558809 0 0 0 0
59000000 0.0038238485622022044 0.01363028050287819 -0.0445906629304292 -0.027254334213472852 0 0 0 0
60000000 0.004075655832368645 0.01353094225712979 -0.04575231783470044 -0.025310030560719354 0 0 0 0
61000000 0.004360011137746599 0.014065546402102403 -0.047011773178129386 -0.023222983459100073 0 0 0 0
62000000 0.004400232473187147 0.01403221263009028 -0.04800939845011834 -0.021097063020071836 0 0 0 0
63000000 0.004134822763378907 0.0147686350426644 -0.049070202263241325 -0.018951824555088516 0 0 0 0
64000000 0.0039394941240787126 0.01446540615624064 -0.049856295889033835 -0.0167865692343168 0 0 0 0
65000000 0.004179621054223155 0.01456952356219158 -0.05069120861187377 -0.014614756102000871 0 0 0 0
66000000 0.0046837354484318095 0.015408078562789047 -0.051406363087716844 -0.012252025074237371 0 0 0 0
67000000 0.004653647865196913 0.01518740413783891 -0.051929656752280645 -0.009961330760272207 0 0 0 0
68000000 0.0050228735502767345 0.015564056880025861 -0.05239354125175016 -0.007598514411884148 0 0 0 0
69000000 0.004710430586616466 0.01592631274553973 -0.052885701779608336 -0.0052907533497138 0 0 0 0
70000000 0.004665090809998038 0.015876631678886116 -0.053161780480285484 -0.0029021861345138993 0 0 0 0
71000000 0.0049604044934142034 0.015964668796794427 -0.05318146122202626 -0.00042068447807573254 0 0 0 0
72000000 0.004928793118675512 0.016346931084914758 -0.05337315825218072 0.00194176865861215 0 0 0 0
73000000 0.005011516734480998 0.016549252019196194 -0.05338416446794205 0.004406105006552324 0 0 0 0
74000000 0.004836268225647155 0.015534181056989853 -0.05318048116526514 0.00676869340923868 0 0 0 0
75000000 0.005231252598172753 0.016739650420752955 -0.05289730524070017 0.009210296723986567 0 0 0 0
76000000 0.005276968677821278 0.016821929335662723 -0.052418447382071465 0.011661785644214377 0 0 0 0
77000000 0.0051615341148791155 0.017090974468064044 -0.05199146805985518 0.014067794996279017 0 0 0 0
78000000 0.005581098237482159 0.01745504211684233 -0.051364425685504776 0.016511018870250815 0 0 0 0
79000000 0.0057928279742883075 0.01767298768384537 -0.05067502107788944 0.018876226729594187 0 0 0 0
80000000 0.006059953102300083 0.018363379246952583 -0.0498602599088663 0.021318911096076032 0 0 0 0
81000000 0.0061467006773686635 0.018387415437825183 -0.048890573732205324 0.023635047368997554 0 0 0 0
82000000 0.00636038744611707 0.018680784259035698 -0.04788152199166585 0.02587746832978658 0 0 0 0
83000000 0.006523720411010481 0.018722852676050342 -0.046724381360096975 0.028105791642166228 0 0 0 0
84000000 0.006143380474033773 0.01870162552378917 -0.04537546975284758 0.030257734593173744 0 0 0 0
85000000 0.006637899369202025 0.01914537505499753 -0.044051969539740214 0.032367214418641994 0 0 0 0
86000000 0.006521766999600986 0.019641362566244845 -0.042693757858547676 0.034485288553823476 0 0 0 0
87000000 0.0065153948937919 0.019755085794880344 -0.04118419501550549 0.03657071245573278 0 0 0 0
88000000 0.006705694974718397 0.019950981159302203 -0.03949134264841823 0.03844090585317562 0 0 0 0
89000000 0.006969287971450488 0.02019687324129279 -0.03768964945416573 0.040309147382823714 0 0 0 0
90000000 0.006968786384626315 0.02046676582182477 -0.03581750610170515 0.0422125826181098 0 0 0 0
91000000 0.007066065455947697 0.020361289775748217 -0.034029186609296436 0.04386636395736295 0 0 0 0
92000000 0.00705224589218385 0.02075643086414171 -0.03203355489161815 0.0455120648445247 0 0 0 0
93000000 0.007078657329832102 0.02156036161155013 -0.029993846209144633 0.04710086032827064 0 0 0 0
94000000 0.00734179459089701 0.021269284327910257 -0.027821104658311346 0.0485145955664726 0 0 0 0
95000000 0.007017731765576714 0.021906825602641594 -0.025683755124258027 0.04979558986729636 0 0 0 0
96000000 0.007704414757262504 0.021748801413312722 -0.02340880189282514 0.05105916423677267 0 0 0 0
97000000 0.007609381587995208 0.022381929228703454 -0.021005663631665845 0.05215219916156558 0 0 0 0
98000000 0.007447427925653677 0.022089903115362776 -0.018512938667353283 0.05329766979113863 0 0 0 0
99000000 0.007424430536692781 0.02271087203950972 -0.01609773044294391 0.054145769907479956 0 0 0 0
100000000 0.007524658520898064 0.02234735205588254 -0.01341314533111749 0.055006990575104324 0 0 0 0
101000000 0.007474857181400442 0.02300848352902685 -0.01093454708390319 0.055680011404427 0 0 0 0
102000000 0.007614810090391111 0.022980586114927128 -0.008160735968209057 0.05617221349636701 0 0 0 0
103000000 0.007951688585730145 0.023438339961939954 -0.005640245178485633 0.056677220971662015 0 0 0 0
104000000 0.007848029202594156 0.023746144202223714 -0.002862691842943975 0.05705526435301327 0 0 0 0
105000000 0.007748759285394632 0.02403584563372665 -0.00019174748973182416 0.057120456055167086 0 0 0 0
106000000 0.007835423514623085 0.024081717708856868 0.002474507845326193 0.0571439591610284 0 0 0 0
107000000 0.007749827380900486 0.02399684445502508 0.005347441099787683 0.057094283635515365 0 0 0 0
108000000 0.007630239380629228 0.02468182256009975 0.008003133058408218 0.056945318238253176 0 0 0 0
109000000 0.00826637356631281 0.02489209613669054 0.010712810771167246 0.05654272476142657 0 0 0 0
110000000 0.007999197142829267 0.025376844885502 0.013429270183592561 0.05604723095255485 0 0 0 0
111000000 0.008219143451419244 0.0253770473366291 0.016178180665496963 0.05549575613581906 0 0 0 0
112000000 0.008417932066848719 0.025340320032063716 0.01873646486408818 0.05476076388062163 0 0 0 0
113000000 0.008305906446495235 0.025725953998317244 0.02148201115461262 0.05384529102465253 0 0 0 0
114000000 0.008542270544271643 0.025916268021262706 0.02402906891077088 0.05280363466424116 0 0 0 0
115000000 0.00873824570815784 0.026491138386471918 0.02663094430271164 0.05168039540508448 0 0 0 0
116000000 0.008727659768030693 0.026736057485782085 0.029211483823729734 0.050494813177671516 0 0 0 0
117000000 0.008581334698395513 0.026948882943571593 0.03158370732794917 0.04897491376452468 0 0 0 0
118000000 0.00836497137162459 0.026925977635834028 0.034080474676072246 0.047462688567085784 0 0 0 0
119000000 0.008914392312175367 0.02733729065893247 0.036307012477978115 0.04581256855271363 0 0 0 0
120000000 0.008751488130043799 0.02729302113591682 0.038621308066234504 0.04402790659361026 0 0 0 0
121000000 0.009085387622101012 0.027673039600066007 0.040752058782274156 0.04219284940681414 0 0 0 0
122000000 0.009001800000433446 0.028255647797203836 0.04293640860735394 0.04020611290802112 0 0 0 0
123000000 0.00897852268211772 0.028042193076470757 0.04483918265215199 0.03810157637194936 0 0 0 0
124000000 0.009226052482005613 0.02812711126407376 0.04680724356225221 0.03582746453322886 0 0 0 0
125000000 0.009171205553193004 0.028344606710270396 0.04847488379810245 0.03353834616191971 0 0 0 0
126000000 0.00946751786642119 0.028598634702583534 0.05008441825614154 0.0312279383551441 0 0 0 0
127000000 0.009028365473984284 0.029413786055395363 0.051694026123786915 0.028768254766529916 0 0 0 0
128000000 0.00884672346830067 0.029154445963348034 0.05307851907398733 0.026189672262644507 0 0 0 0
129000000 0.009616326475692109 0.029050069323982432 0.05434471708978781 0.023535806427692475 0 0 0 0
130000000 0.009398440831073666 0.03017132797035046 0.055527971482909784 0.02088797051873793 0 0 0 0
131000000 0.009306878386362506 0.030183690960225964 0.05653819936797087 0.018026029428232403 0 0 0 0
132000000 0.00903145071160101 0.029876360634959905 0.0574011410039672 0.015319327781939843 0 0 0 0
133000000 0.009233654596986385 0.02981846080734836 0.05815906644202338 0.012370238292474413 0 0 0 0
134000000 0.009703497947755923 0.030656934550086768 0.058737080444859105 0.009571203704192434 0 0 0 0
135000000 0.009651591454181508 0.030949788112097726 0.0591809608242841 0.006495946137811378 0 0 0 0
136000000 0.009701298548481693 0.030989269226752002 0.05948179139802221 0.0035569177379013665 0 0 0 0
137000000 0.009436826862202085 0.031321284980917095 0.05958176087913222 0.0005179751700690636 0 0 0 0
138000000 0.009723635670034536 0.031156203293699482 0.05953792263030874 -0.00244625935025006 0 0 0 0
139000000 0.009840491013581195 0.03163308456292175 0.059376184116039225 -0.005384730187272978 0 0 0 0
140000000 0.009569951603311838 0.03203510419208115 0.059013784079513985 -0.008423521416958159 0 0 0 0
141000000 0.010052522367756224 0.032024958650300715 0.05850851381124801 -0.011296383038388537 0 0 0 0
142000000 0.009814599339350262 0.031886721022662164 0.05777562245767812 -0.014099949875737651 0 0 0 0
143000000 0.01036688541930319 0.032860656870526944 0.0569392919852024 -0.01715736522920066 0 0 0 0
144000000 0.009594989331090896 0.03212351782066334 0.055940046894889246 -0.019823658613996056 0 0 0 0
145000000 0.00949689249229518 0.03300001164700539 0.05485134222251549 -0.02291031975588399 0 0 0 0
146000000 0.009591931863700253 0.032578115662823336 0.053784337545684756 -0.02552751351375309 0 0 0 0
147000000 0.008913630611935038 0.03313950886978965 0.052337627525775345 -0.028180774287604276 0 0 0 0
148000000 0.009666143065574515 0.03295549847483735 0.05062787479381264 -0.030645071673180313 0 0 0 0
149000000 0.01017759612660616 0.034040007425169536 0.04912438037713055 -0.03336757635623841 0 0 0 0
150000000 0.009592175737540162 0.03388336625314427 0.047399670937805505 -0.035727775890975505 0 0 0 0
151000000 0.010128966142508971 0.03461325566462294 0.04525609766509665 -0.03816281931156155 0 0 0 0
152000000 0.010827244644139459 0.034616139566386754 0.043216208504660444 -0.040244088714356946 0 0 0 0
153000000 0.01005745487310073 0.0340713128997122 0.041016897525925466 -0.04227609864477281 0 0 0 0
154000000 0.009678912686144596 0.03508036681258102 0.03887811085820342 -0.044289264582615166 0 0 0 0
155000000 0.010493053459214691 0.034913502797926314 0.03633780816278247 -0.0463440576779247 0 0 0 0
156000000 0.010459903513294438 0.03527818549349582 0.03414440653997299 -0.04801060187090028 0 0 0 0
157000000 0.01128136563367664 0.035751924224949924 0.03158840902169531 -0.04960118280403197 0 0 0 0
158000000 0.010763245269367392 0.03524778444010561 0.02874449172166831 -0.05096922285917832 0 0 0 0
159000000 0.010382922006028526 0.035418525912424774 0.025989212092950815 -0.052159641192493084 0 0 0 0
160000000 0.010362664026452662 0.03573237701029127 0.023500776393664644 -0.05349406544068513 0 0 0 0
161000000 0.010895116586029667 0.03602678743212181 0.020451170338281678 -0.05420165576616285 0 0 0 0
162000000 0.010125621657572088 0.03617672007077974 0.017562676825384475 -0.05540741080586899 0 0 0 0
163000000 0.010680761528937923 0.03677833258253151 0.014758223000974065 -0.05598322710495302 0 0 0 0
164000000 0.011145929906153233 0.03631617622889425 0.011860622372648535 -0.05663418692430937 0 0 0 0
165000000 0.011172278142180164 0.03707591498557715 0.009016779701674785 -0.057006870278384206 0 0 0 0
166000000 0.011070674683047245 0.0370472168800725 0.005883333799789018 -0.05704443564681449 0 0 0 0
167000000 0.011172170144411537 0.03666569164534532 0.003282662926705578 -0.05719690866440915 0 0 0 0
168000000 0.011544841614484788 0.03738077338236582 5.368013606094301e-05 -0.05716491196755896 0 0 0 0
169000000 0.010965437610953041 0.03752090819595153 -0.002919308679189029 -0.05682266292662282 0 0 0 0
170000000 0.011440975243671098 0.03723441323076578 -0.005577985352122541 -0.05631885696073746 0 0 0 0
171000000 0.01039677401190074 0.037721521295785196 -0.008662602721743493 -0.055947368208062766 0 0 0 0
172000000 0.011080227855277168 0.039637573085783806 -0.01140498640314738 -0.055304916874344814 0 0 0 0
173000000 0.011098642688342906 0.03850531447899571 -0.014125808224108975 -0.05426155269439255 0 0 0 0
174000000 0.011011298723661524 0.03856410373388948 -0.016774232213944095 -0.053223843853718936 0 0 0 0
175000000 0.011241911334679748 0.03926817657723378 -0.019655179256737217 -0.05213789115843199 0 0 0 0
176000000 0.011168425595697454 0.03937027839677343 -0.021946007461117238 -0.05103179408924777 0 0 0 0
177000000 0.01099629947839101 0.039522420415136816 -0.024490549058495723 -0.04948273426780508 0 0 0 0
178000000 0.011576354496506708 0.039277638428170406 -0.026994966701355583 -0.047927216295592254 0 0 0 0
179000000 0.011443197856851127 0.03922711778728833 -0.029080985603066895 -0.04640754632311593 0 0 0 0
180000000 0.011712975450276476 0.0395043821229175 -0.031454380155924035 -0.04456492865511427 0 0 0 0
181000000 0.011846903568342051 0.03986148606856826 -0.03342930095386321 -0.0427413672002096 0 0 0 0
182000000 0.011824839215133906 0.04017473202392718 -0.03530996543081167 -0.04091028103282556 0 0 0 0
183000000 0.011684652860238953 0.040822250024173945 -0.037244991989826656 -0.03882043274341736 0 0 0 0
184000000 0.011223700370655685 0.040498798729496625 -0.03897929027873348 -0.03661888401500075 0 0 0 0
185000000 0.011075321603486569 0.04044256562275867 -0.04040906846735396 -0.03459291649220595 0 0 0 0
186000000 0.012263587632651188 0.04091262705735145 -0.042013559350404336 -0.0320569517481792 0 0 0 0
187000000 0.011621328900318825 0.04076418700254285 -0.0435032745108544 -0.02983503553159072 0 0 0 0
188000000 0.01199296930664448 0.040988951993173706 -0.04461740250595291 -0.02753386517949479 0 0 0 0
189000000 0.011555536820762715 0.04145963493195171 -0.04576069342489529 -0.02516627090708734 0 0 0 0
190000000 0.011923730132330985 0.04096193137597337 -0.04653463368749085 -0.02265277966620105 0 0 0 0
191000000 0.012162207305185007 0.04137355092830251 -0.04725983427528757 -0.019937966481199998 0 0 0 0
192000000 0.010832985160694811 0.041833790657233194 -0.04811262186790854 -0.01747896042613452 0 0 0 0
193000000 0.01180544431115475 0.042390637694999685 -0.04868744514234898 -0.014945832124736002 0 0 0 0
194000000 0.01253450808703829 0.04265227621828393 -0.04902382028580262 -0.012461903142763525 0 0 0 0
195000000 0.012216924856177286 0.04271464012365237 -0.04919038387383977 -0.009948462273974955 0 0 0 0
196000000 0.012502343455326246 0.04208536683837175 -0.04942319899766035 -0.007350403441922371 0 0 0 0
197000000 0.012370001575983119 0.042295014101240896 -0.04954065871912151 -0.005003827838583241 0 0 0 0
