# HZ S RI R 50
1000000 -0.0006840534577499766 0.000725998287309429 0.04664895348080956 -0.003285311866713006 0 0 0 0
2000000 0.0003131506879172336 0.0005834970448312007 0.04804608148096493 -0.004397764327007738 0 0 0 0
3000000 -0.0003183609635596088 0.0013885325622348778 0.04782940631937534 -0.006911654354980981 0 0 0 0
4000000 -7.086089050332877e-05 0.0013317748296623165 0.04733310635201911 -0.009266354371237967 0 0 0 0
5000000 0.0005416068782566576 0.0015274079051060569 0.04671699689091968 -0.011549119500669053 0 0 0 0
6000000 -0.0003257445803032855 0.0015731002849357497 0.0459550644474694 -0.013769408476192457 0 0 0 0
7000000 0.00022929352981288536 0.002024365950379245 0.04518148796209438 -0.015898699955373994 0 0 0 0
8000000 0.00019552635744422665 0.00260712317522511 0.044344493034449574 -0.01792049521908619 0 0 0 0
9000000 0.0008483002140686664 0.002552325421249995 0.04332821705528313 -0.01996141124870098 0 0 0 0
10000000 -0.00023628432481886743 0.002717667359363048 0.04240433170829378 -0.021979724423299683 0 0 0 0
11000000 9.995925416487502e-05 0.0026498652174199323 0.0413659320361183 -0.02386151601772327 0 0 0 0
12000000 0.0007751276871182446 0.0035778578926983417 0.040172006440293874 -0.02584354475503415 0 0 0 0
13000000 0.0005502064731252371 0.0032783057772856877 0.03902843730909233 -0.027708504796125036 0 0 0 0
14000000 0.00048113995214202235 0.0035323691672015764 0.03764131469907758 -0.02957403788266188 0 0 0 0
15000000 0.0006511884401905994 0.003620776999598197 0.03625106972182625 -0.03127562822626609 0 0 0 0
16000000 0.0008210396044951829 0.0033541954702162847 0.03472711338939571 -0.03302471292481919 0 0 0 0
17000000 0.0008483519174850743 0.004925938432884738 0.03312517824753904 -0.034607464113576056 0 0 0 0
18000000 0.00078888262925277 0.004168077784095175 0.031480543938748565 -0.036258500089625854 0 0 0 0
19000000 0.0008957452472784861 0.004636088459276348 0.029705787808791958 -0.03773591204523406 0 0 0 0
20000000 0.0011940958417235757 0.005005015350521281 0.027847448429402673 -0.039089054711714484 0 0 0 0
21000000 0.0009249464455028112 0.0050158006922482404 0.02597397772102905 -0.04047694912520361 0 0 0 0
22000000 0.0008411994251456205 0.005145419228389214 0.02392002797392285 -0.04161165738729605 0 0 0 0
23000000 0.0010089614221619229 0.005404316113955232 0.021897246535825268 -0.04271734421713445 0 0 0 0
24000000 0.0010954287184450776 0.006086865497994858 0.019815476744097064 -0.04379203924168875 0 0 0 0
25000000 0.0009226728062930808 0.005996888509093327 0.01765812362148126 -0.04464945076401833 0 0 0 0
26000000 0.0018689416838604488 0.006340450446698086 0.015455148625404458 -0.04547808942438303 0 0 0 0
27000000 0.0014146027838917408 0.006153466098674076 0.013254580963604243 -0.046060797818343574 0 0 0 0
28000000 0.0015379248281402645 0.006383350266526021 0.010946639700312379 -0.04668225394673275 0 0 0 0
29000000 0.0013710162330701008 0.006712783691426026 0.008746837658918956 -0.04718236643615362 0 0 0 0
30000000 0.0016798184268970525 0.007104619682073476 0.006315956266622421 -0.04755261855597202 0 0 0 0
31000000 0.0011892630594003092 0.007305168656086592 0.004161724197993257 -0.04781979660034225 0 0 0 0
32000000 0.001418774935335726 0.007576799816652704 0.001792443629734705 -0.04789170640018078 0 0 0 0
33000000 0.001525095279950676 0.00767369585143654 -0.0004724631998019919 -0.047909980176194855 0 0 0 0
34000000 0.001641326973302 0.008244741906605447 -0.0027496659796308965 -0.04787079140489797 0 0 0 0
35000000 0.0013970688775967375 0.008348193191928317 -0.005035444436751206 -0.04763637752699578 0 0 0 0
36000000 0.0021954436964978278 0.008332844553571556 -0.007375816519283474 -0.04729805283332079 0 0 0 0
37000000 0.0017221438071893182 0.00858422356480699 -0.0096395072162857 -0.04690983014544801 0 0 0 0
38000000 0.0020065563591675655 0.008579165602000656 -0.011859270853517014 -0.04632273482642363 0 0 0 0
39000000 0.0013973556223032522 0.008946313186426314 -0.01412601726110165 -0.045753379064725055 0 0 0 0
40000000 0.0022518741109075775 0.009086593146636165 -0.016279411301761575 -0.04491262402864785 0 0 0 0
41000000 0.0022263722020095405 0.008939771978957433 -0.018368304006371797 -0.04404775730193122 0 0 0 0
42000000 0.00262946409749244 0.010104134347119627 -0.02057774764431432 -0.04315135097105027 0 0 0 0
43000000 0.0018276014370298267 0.00972637757002664 -0.02259201774839351 -0.04207453303439839 0 0 0 0
44000000 0.002224567252594032 0.009937579768033406 -0.02452131833897878 -0.04102366509273401 0 0 0 0
45000000 0.0024842961875596644 0.010136488272075653 -0.026596137461510783 -0.039670370018571204 0 0 0 0
46000000 0.002360699226040897 0.010262261144149427 -0.028387824532530342 -0.03836264974111154 0 0 0 0
47000000 0.002582851492573014 0.010606687066174177 -0.03016636945350384 -0.03694213439308748 0 0 0 0
48000000 0.0024653459511836686 0.010548503357625463 -0.03182559340963728 -0.03543135325607097 0 0 0 0
49000000 0.002778627958165694 0.011289602856806118 -0.03346879367604998 -0.03394142903527004 0 0 0 0
50000000 0.003000604557413603 0.01144774283189592 -0.03506347954475587 -0.03228475006373777 0 0 0 0
51000000 0.0029746969451933383 0.011422809356360013 -0.03657313667485936 -0.030457419555967126 0 0 0 0
52000000 0.003146448205051538 0.011626900117940034 -0.03802323675493165 -0.02881215754724784 0 0 0 0
53000000 0.0030596169603449566 0.012019755309642537 -0.03930764700172508 -0.026827387461510754 0 0 0 0
54000000 0.0031876710307954894 0.012005634052035382 -0.04053338400095923 -0.02497732416803821 0 0 0 0
55000000 0.0033760554993737557 0.012499104971368536 -0.04167468237742548 -0.02302372388378946 0 0 0 0
56000000 0.003161133281004215 0.012664018903099948 -0.042790339693656684 -0.020836168202395144 0 0 0 0
57000000 0.0035232678759173977 0.013200699019670522 -0.04362761451674996 -0.018947486720920444 0 0 0 0
58000000 0.0035154790840571494 0.013395394839878531 -0.04451170073147828 -0.016789876292993708 0 0 0 0
59000000 0.0032654480190430963 0.013456358383189645 -0.04520940791610247 -0.014686640206855695 0 0 0 0
60000000 0.003547398174152573 0.01338228672217212 -0.04584643770788873 -0.012411366447095036 0 0 0 0
61000000 0.0038168689692182236 0.013681086051406716 -0.046370258599854074 -0.010222411506862025 0 0 0 0
62000000 0.0036705588246518143 0.013821345355826456 -0.046817447005486526 -0.008006887398966381 0 0 0 0
63000000 0.0035248447504930922 0.01400519858513287 -0.04720884208763559 -0.0058228708288934625 0 0 0 0
64000000 0.0035580744499970392 0.014314796881866947 -0.04721586520168156 -0.003458912946478828 0 0 0 0
65000000 0.00361574107754531 0.014624056245498354 -0.047404738465630994 -0.0013007012553496492 0 0 0 0
66000000 0.004297058905778053 0.014997609456170133 -0.04750109233894632 0.001078702527487132 0 0 0 0
67000000 0.003933327896130704 0.015277812931329468 -0.047265220212425574 0.0032693959508155314 0 0 0 0
68000000 0.004180880314114984 0.015205135400696622 -0.04706186840114439 0.0054485911818413805 0 0 0 0
69000000 0.00438668895754897 0.015733178223544267 -0.0468575529000581 0.007704152466148735 0 0 0 0
70000000 0.0040741976633380875 0.015799873140902764 -0.04627540515934955 0.009955344402774033 0 0 0 0
71000000 0.004182406273831917 0.01550638370028224 -0.045753496769451896 0.012210993879902505 0 0 0 0
72000000 0.004287348237778443 0.016245999555884346 -0.045173653357895326 0.014351492537245185 0 0 0 0
73000000 0.0039724193778880815 0.01648651031842371 -0.04449631743764081 0.01644056148928034 0 0 0 0
74000000 0.004790649312703849 0.015490728223451558 -0.043416794750781126 0.0185272804980244 0 0 0 0
75000000 0.004649012260962264 0.016734936089374843 -0.042688234270794566 0.020652888688550773 0 0 0 0
76000000 0.004722163510869085 0.01670008773561506 -0.0415948153877077 0.022665806637679947 0 0 0 0
77000000 0.004616800429609567 0.017329849423318104 -0.04054303703683094 0.02462538027262344 0 0 0 0
78000000 0.005003184837051982 0.017257315836551854 -0.03927575701892664 0.026531190978346473 0 0 0 0
79000000 0.0050115866706353625 0.017483490881614598 -0.0379449453589577 0.028347680652196908 0 0 0 0
80000000 0.005033173532533685 0.018174085207539676 -0.036499005142976236 0.030227124922598374 0 0 0 0
81000000 0.005120233668877155 0.018170371260826913 -0.035136313356126894 0.03186468820675613 0 0 0 0
82000000 0.00525433004721559 0.018205161227977402 -0.033574314538551656 0.033579798313689416 0 0 0 0
83000000 0.0052623085156190625 0.018373071317022347 -0.03191283397605609 0.035055901123189064 0 0 0 0
84000000 0.005419165129630545 0.018758828916828164 -0.030201213557210723 0.03662253510178472 0 0 0 0
85000000 0.0055522359549137765 0.01904085262104534 -0.02842306789254688 0.038003231202035304 0 0 0 0
86000000 0.00579671534755201 0.0191408245917214 -0.026583900478547896 0.03939119793179579 0 0 0 0
87000000 0.005960510968750772 0.019470195963500754 -0.024768073078582906 0.040646473843897725 0 0 0 0
88000000 0.005425820739436464 0.02008597373492395 -0.022867466506655124 0.04170015384757319 0 0 0 0
89000000 0.005599381782754453 0.019924151372983343 -0.020877015731190204 0.04282397759109997 0 0 0 0
90000000 0.0055348059188649245 0.02032105443249672 -0.018829035073750926 0.04377943398670946 0 0 0 0
91000000 0.005531156873594271 0.02027614125244239 -0.01678072219372073 0.04464403997079494 0 0 0 0
92000000 0.005970482611166432 0.020503823330090428 -0.014661446357164959 0.04550345837232469 0 0 0 0
93000000 0.006550531150054591 0.020796661398662042 -0.012604029184923626 0.04611458385593996 0 0 0 0
94000000 0.006432430226613834 0.02067848621111699 -0.010378336815195482 0.046712938757308135 0 0 0 0
95000000 0.006517076138344427 0.02159586688165678 -0.008098502902252438 0.04710711548281789 0 0 0 0
96000000 0.006489847412657393 0.02172858084241631 -0.005952792727965712 0.04753305179169973 0 0 0 0
97000000 0.006686549695028982 0.02200933600012644 -0.0036008658472897236 0.04779906487692411 0 0 0 0
98000000 0.006047632246215668 0.02159350839828964 -0.0013648232388696524 0.047909380881441935 0 0 0 0
99000000 0.006579830631103163 0.022539854431327302 0.0008534211018856937 0.04807313271147092 0 0 0 0
100000000 0.006174948253100616 0.02215985861138505 0.003251926487565451 0.04792058239718678 0 0 0 0
101000000 0.006430831167167935 0.022840168584948174 0.00559914614864825 0.04777792026309228 0 0 0 0
102000000 0.006665549887159748 0.02280100554537774 0.007924736184396068 0.047486923157157426 0 0 0 0
103000000 0.00651403880037386 0.02273739304137641 0.010173062844906284 0.04717685569171306 0 0 0 0
104000000 0.006793630777766803 0.023416611228337193 0.012515036724311547 0.046739676579671346 0 0 0 0
105000000 0.006818095123156771 0.02371774652120829 0.014683251511930583 0.04610022883975026 0 0 0 0
106000000 0.006665350236116143 0.02392864477127277 0.016947880659634148 0.04529762389085718 0 0 0 0
107000000 0.006879225797187741 0.02369562735731856 0.01917174688596908 0.04451125077740148 0 0 0 0
108000000 0.006890094218514253 0.02433873854810744 0.021186655000849264 0.043613624086307236 0 0 0 0
109000000 0.007091006890736021 0.02471742957862332 0.02335827165202294 0.042534814170899105 0 0 0 0
110000000 0.007052903853541107 0.0249717279503953 0.02535480696782842 0.041412339800427495 0 0 0 0
111000000 0.0071560238826833805 0.025127615751969715 0.027342334711309056 0.0401922474828312 0 0 0 0
112000000 0.0072710913435270206 0.024911666667404766 0.029279183365789167 0.03897043862407787 0 0 0 0
113000000 0.00714574764356051 0.025541382229339476 0.03123340286997669 0.037454089373123486 0 0 0 0
114000000 0.007223724867703205 0.025781654425824817 0.032993935843889 0.03594646458570026 0 0 0 0
115000000 0.007639608399298407 0.02610738405963993 0.03475360560639439 0.03435479585525542 0 0 0 0
116000000 0.0077442572165164515 0.026303428697919788 0.036483259953334735 0.03276987798333312 0 0 0 0
117000000 0.007538241217047326 0.02659577697134645 0.03810094796137179 0.030912547689846397 0 0 0 0
118000000 0.007648469514453944 0.02679485582848718 0.03958792058708724 0.02906771276109827 0 0 0 0
119000000 0.007764369977677787 0.026798538021145582 0.04099442154420654 0.02715493007319153 0 0 0 0
120000000 0.007612408844255405 0.027306083409645614 0.04234725989739623 0.025162717775329965 0 0 0 0
121000000 0.008050869895174494 0.027308250259680044 0.04356878335376384 0.023113478387330036 0 0 0 0
122000000 0.007909698783811455 0.028296507405654793 0.044861260873427865 0.021030953833037953 0 0 0 0
123000000 0.0075615757991014075 0.027928877202756292 0.04585700506867928 0.018793238204154263 0 0 0 0
124000000 0.007673653435546281 0.027861173970403517 0.04678697577660514 0.016606795060368364 0 0 0 0
125000000 0.007873835564029511 0.028052245121845988 0.04762227637706411 0.01433986389594404 0 0 0 0
126000000 0.008110744897567822 0.02862220089634799 0.04837119422637278 0.011966230337093913 0 0 0 0
127000000 0.00781643239267619 0.029319257394354772 0.04899092511109116 0.009662873049952782 0 0 0 0
128000000 0.007864267620417541 0.02899143678647927 0.04940443795242441 0.007331791177736066 0 0 0 0
129000000 0.008118999886708722 0.029111130287215077 0.04984203805386469 0.004795768390640177 0 0 0 0
130000000 0.007936879561062336 0.029882749661777532 0.05012684250766208 0.0023705546792507997 0 0 0 0
131000000 0.007961770672771188 0.029883221587276475 0.0502689104215407 -0.0001924891996988435 0 0 0 0
132000000 0.0080823867451418 0.029509316611381557 0.05029881828074239 -0.0026157026569185522 0 0 0 0
133000000 0.008175604421864543 0.030045628260516172 0.05025019333183812 -0.0052570300025365614 0 0 0 0
134000000 0.008343579922186638 0.030550768380213093 0.0500004386682416 -0.007617555931632156 0 0 0 0
135000000 0.008324873003149715 0.030834320593281634 0.04962265184302387 -0.010174487939821395 0 0 0 0
136000000 0.008345986179629387 0.030914699215263935 0.04911939577533067 -0.012621430988667057 0 0 0 0
137000000 0.007946584249724664 0.031414383589158705 0.04847826774257243 -0.01520701000777133 0 0 0 0
138000000 0.00830519119081657 0.031232241280554005 0.047764109625821005 -0.017678473179324486 0 0 0 0
139000000 0.008652413086399224 0.03133626493835494 0.04698495977581373 -0.019940137200510723 0 0 0 0
140000000 0.0080706138413486 0.03216662067045472 0.045923924777940245 -0.02228635364476226 0 0 0 0
141000000 0.008281548134651946 0.03185699915715021 0.044634676457085354 -0.024739879559679493 0 0 0 0
142000000 0.008064534173723195 0.032616481546547976 0.043512889198562235 -0.02688046050784671 0 0 0 0
143000000 0.009019478386862163 0.0325863190177868 0.04224109641297014 -0.029196747803520225 0 0 0 0
144000000 0.008779719110542369 0.03168738422193083 0.04052379156589699 -0.03124250091773367 0 0 0 0
145000000 0.007922514028940723 0.03301993899547418 0.03912145750537462 -0.033387198720415484 0 0 0 0
146000000 0.008243019279501301 0.03241452543828981 0.03749642402533429 -0.035153073192534405 0 0 0 0
147000000 0.00792658046811332 0.0337174182325194 0.0356495054691934 -0.03731069645089821 0 0 0 0
148000000 0.008778168491227072 0.03321222544514502 0.033770237846915914 -0.03904900013483775 0 0 0 0
149000000 0.008680837226988503 0.033609506825544824 0.03192351231913687 -0.04076380656450773 0 0 0 0
150000000 0.008763132435349583 0.03434651919515796 0.02989296402916213 -0.042486604049918324 0 0 0 0
151000000 0.008803968857705123 0.034747977895115335 0.02760791225522513 -0.043933372740714745 0 0 0 0
152000000 0.008710878431237837 0.035575905771871336 0.025243801542791416 -0.0454208121155616 0 0 0 0
153000000 0.008626798926396928 0.034161914173526785 0.023116373617660693 -0.04661129942672652 0 0 0 0
154000000 0.008260087727985855 0.03487654582480233 0.020770442812858714 -0.04787988297943453 0 0 0 0
155000000 0.008724950178202665 0.034507223415872465 0.018244331530150894 -0.049022930484748685 0 0 0 0
156000000 0.008643939732878162 0.03589614977779851 0.015663813785669854 -0.04981503152365492 0 0 0 0
157000000 0.009547223715679337 0.03558654511067179 0.013203164415126008 -0.05049477382303199 0 0 0 0
158000000 0.009423700311542898 0.03545512812999131 0.010515233625028297 -0.051181169244476334 0 0 0 0
159000000 0.008705205839360991 0.03611160651395115 0.007884150149667295 -0.0518215630349165 0 0 0 0
160000000 0.008833395881512478 0.035111152715325375 0.005215964343099157 -0.05223387970105443 0 0 0 0
161000000 0.009760125916629024 0.036029530318964206 0.0023834966703565985 -0.05235355075069418 0 0 0 0
162000000 0.009454984619967285 0.03613288153589143 -0.00020443323373532657 -0.05270202976484808 0 0 0 0
163000000 0.008598236198574595 0.03696512911124608 -0.0030881283675848166 -0.05243692026603271 0 0 0 0
164000000 0.009283226836115545 0.03643034392973513 -0.005660164073512396 -0.05243951144590322 0 0 0 0
165000000 0.009116968266542931 0.03726572824566336 -0.008420416807237572 -0.05216198835187745 0 0 0 0
166000000 0.009468322572706262 0.037314884415743224 -0.011212409672816323 -0.051503651233300106 0 0 0 0
167000000 0.009818571994936274 0.03728074961390783 -0.013704320317552516 -0.05109187766978204 0 0 0 0
168000000 0.009966478266011481 0.03701663296342269 -0.01634274111832278 -0.05032073714469031 0 0 0 0
169000000 0.009365648976605108 0.037709502019250725 -0.01908776609749776 -0.04938360363034334 0 0 0 0
170000000 0.010445747889201183 0.037567212576477965 -0.021444670187648736 -0.04837379427941595 0 0 0 0
171000000 0.009454733274790237 0.03788421628158018 -0.02425888948441063 -0.04716206740192129 0 0 0 0
172000000 0.009568110279470144 0.03936087758185485 -0.02654977059024406 -0.04602645460343375 0 0 0 0
173000000 0.009614088185747357 0.03825650940059887 -0.029017249306246093 -0.044379230090505914 0 0 0 0
174000000 0.010099327188633982 0.03883538656500121 -0.03115587402694542 -0.04288888660229092 0 0 0 0
175000000 0.00937156693488889 0.03946437119647743 -0.033664219222199095 -0.04136823299221091 0 0 0 0
176000000 0.010089410036120594 0.039537163450324805 -0.035652006981906986 -0.03939715195400689 0 0 0 0
177000000 0.00986459532161451 0.03963950747483908 -0.037875113736258695 -0.03762610194212453 0 0 0 0
178000000 0.010436416996598325 0.03929488258755435 -0.039844254513327244 -0.035540158969730465 0 0 0 0
179000000 0.010487072297416184 0.03959648605597123 -0.041492372172790795 -0.033344116805359 0 0 0 0
180000000 0.01007868067256358 0.03944685611682912 -0.04345617982207769 -0.031109134275636312 0 0 0 0
181000000 0.010847193353213375 0.039761166597501604 -0.044949399889290934 -0.028834212276676135 0 0 0 0
182000000 0.010395844381966739 0.04010896871267833 -0.04637944992781643 -0.026373909159293024 0 0 0 0
183000000 0.009993548162351441 0.04120344053611738 -0.047800581662078234 -0.023801284428846218 0 0 0 0
184000000 0.010001550550240441 0.04090868006440821 -0.04893327119654838 -0.021261112804871595 0 0 0 0
185000000 0.010187879562013126 0.04104399562450937 -0.05001614730425306 -0.01870639431742494 0 0 0 0
186000000 0.01112487084257189 0.041470515379911074 -0.05090922223857297 -0.015921770929112625 0 0 0 0
187000000 0.00999628897173788 0.04155204034598517 -0.051956474785847986 -0.013094975126023733 0 0 0 0
188000000 0.010567590184816634 0.041548381482341336 -0.05233037547110877 -0.010426170425055557 0 0 0 0
189000000 0.01017477863539407 0.04229693342168145 -0.05304192866278921 -0.007626604416067841 0 0 0 0
190000000 0.010741457187141278 0.041719704862297466 -0.05333754287072763 -0.00468456450347121 0 0 0 0
191000000 0.010628736045211555 0.04186259073623902 -0.05338410255966191 -0.001725417654519756 0 0 0 0
192000000 0.00999176922356406 0.04207332528093805 -0.053618420809617554 0.001085788681977002 0 0 0 0
193000000 0.011220108621344854 0.042296740579975865 -0.05320322756573845 0.004007204480284619 0 0 0 0
194000000 0.011276093595131579 0.04286823486411005 -0.05304792455142924 0.006818486062008684 0 0 0 0
195000000 0.011288994085548653 0.04334462816107031 -0.052503161763274464 0.009728145296338557 0 0 0 0
196000000 0.011057627047698856 0.04270856034581921 -0.05203724293253952 0.012538591078526715 0 0 0 0
