# HZ S RI R 50
1000000 -0.00046017752032704115 0.00022515289038703556 0.04717037477136991 -0.003422212123536946 0 0 0 0
2000000 -0.0002471446152173497 -4.284191062104506e-05 0.04859377533576528 -0.00470705026699064 0 0 0 0
3000000 -0.00016990384621188448 0.0010892794198675512 0.04834611154472468 -0.007384092483501749 0 0 0 0
4000000 4.388282335592915e-05 0.0011843475166397022 0.04785224733690517 -0.009960796375504146 0 0 0 0
5000000 7.203604105281113e-05 0.0014079081628341707 0.047115406420755096 -0.0124117089740711 0 0 0 0
6000000 -0.0001744060947367878 0.0022654881563019123 0.046314515428365226 -0.014809577822561426 0 0 0 0
7000000 0.0002295364492440998 0.002149299662178689 0.04538461628605813 -0.017086298153577335 0 0 0 0
8000000 0.00032446788221306583 0.002681526382992192 0.04451607662965036 -0.019333850738459675 0 0 0 0
9000000 0.0006008248099505366 0.0022280111010747877 0.04344390558923009 -0.02156727249829886 0 0 0 0
10000000 -0.00015948631627582028 0.003073494638688117 0.04224844702630515 -0.02366755013588995 0 0 0 0
11000000 -0.000282291803437571 0.0029217352886281678 0.04098259085239708 -0.025730772975442826 0 0 0 0
12000000 0.00045318305814096867 0.0038870010057424857 0.039615493862623065 -0.02772915167993625 0 0 0 0
13000000 0.0004233811808041067 0.003396940895802778 0.03827823875310422 -0.029694547751823425 0 0 0 0
14000000 0.0008168735584610094 0.0034166604450240104 0.03673771422064332 -0.031696769200798995 0 0 0 0
15000000 0.0002659413163607048 0.003744790639927534 0.03502905708384294 -0.0334366368075839 0 0 0 0
16000000 0.0005546015197521359 0.004006446796341064 0.033319490562152394 -0.035319452672384614 0 0 0 0
17000000 0.0008676193566389668 0.004776227228795035 0.031462292733443385 -0.03686291843853576 0 0 0 0
18000000 0.0009476612903616997 0.0046475068425479 0.02950201243493157 -0.03854249469105512 0 0 0 0
19000000 0.0005230582512168763 0.005239888873059791 0.027477838876330946 -0.040084477313308726 0 0 0 0
20000000 0.0010294528616910806 0.004913698471223909 0.025413218075460684 -0.04136413048307845 0 0 0 0
21000000 0.0004985659313007766 0.006029002857593955 0.023099284487405416 -0.042728472911948 0 0 0 0
22000000 0.0014518784352972572 0.005855081213941768 0.020861218913120986 -0.043709655174317096 0 0 0 0
23000000 0.0004212345011848569 0.006025999153228144 0.018602507723269716 -0.04479036713498454 0 0 0 0
24000000 0.0012377881836182704 0.006548437897056537 0.01622490206156809 -0.045691607136510465 0 0 0 0
25000000 0.001120486389899349 0.006316890759668194 0.013808759648287705 -0.04643597122945232 0 0 0 0
26000000 0.0013843434579435918 0.0065515130883886195 0.011415354870826306 -0.047081991880839634 0 0 0 0
27000000 0.0012147398390001786 0.00689359399888964 0.00882189604341904 -0.04754674906244494 0 0 0 0
28000000 0.0014495539050029395 0.0070587986491417384 0.006293496921509077 -0.04791149767458408 0 0 0 0
29000000 0.0015009692760402508 0.0074865811290492044 0.00386438848745577 -0.048149140638060015 0 0 0 0
30000000 0.001705155861129109 0.007324810615027041 0.0012894985570438156 -0.048188948248460775 0 0 0 0
31000000 0.0017214406561935935 0.007907400182250559 -0.0011359874752868986 -0.048227709458726765 0 0 0 0
32000000 0.0012961122954920994 0.008038949187734231 -0.0036637815939863784 -0.04794265844686817 0 0 0 0
33000000 0.0014217016465507466 0.00833606971699497 -0.006148048900552518 -0.04763182193115519 0 0 0 0
34000000 0.0014658133823986239 0.008684820961317554 -0.00855508671681107 -0.047213455160232606 0 0 0 0
35000000 0.0017269991916404922 0.008766109143266154 -0.011036058413547514 -0.04660734325003389 0 0 0 0
36000000 0.001916026923413149 0.009014035089049462 -0.013408500271646216 -0.04587825579694862 0 0 0 0
37000000 0.0017095390209618281 0.009072612872750439 -0.015772329230158318 -0.045153223139506315 0 0 0 0
38000000 0.0016891041733223565 0.009249361684146518 -0.018070226054125747 -0.04409487517490224 0 0 0 0
39000000 0.0015461616088768677 0.009625608492719857 -0.020332350445114583 -0.04307607689894952 0 0 0 0
40000000 0.0020736003577319986 0.009752733194406525 -0.022475035524538042 -0.041801857747339105 0 0 0 0
41000000 0.0022141467465719997 0.009673777727739445 -0.024538075663381582 -0.04055986405238015 0 0 0 0
42000000 0.00241952464542721 0.010468481051599457 -0.02671388421293176 -0.0392066920821852 0 0 0 0
43000000 0.0018008676635638387 0.010325207884369003 -0.028531891562686214 -0.037672552653674855 0 0 0 0
44000000 0.0020511863894703973 0.010659749582913144 -0.030425166321565077 -0.03609489311551171 0 0 0 0
45000000 0.0025379315116278826 0.010818390629764921 -0.03221291240246292 -0.034323627221412426 0 0 0 0
46000000 0.0022582318179868413 0.010849479103190738 -0.033861441152219604 -0.03258964121187454 0 0 0 0
47000000 0.002777110016127749 0.011344798813873621 -0.035395341386462255 -0.030818073434834208 0 0 0 0
48000000 0.0026439574426112525 0.01146651976462997 -0.03684207213006424 -0.028947447325052108 0 0 0 0
49000000 0.0026257178988377356 0.01198258652652253 -0.03817493846458456 -0.026877381220700283 0 0 0 0
50000000 0.0030352226573258584 0.012373142118168269 -0.039460090657002046 -0.02479299541104334 0 0 0 0
51000000 0.0031265331291428174 0.012194311195738612 -0.040565500606939746 -0.022682686199682594 0 0 0 0
52000000 0.0028707937042757874 0.01233877984722655 -0.04163255849870183 -0.020595501359974365 0 0 0 0
53000000 0.003263103024373934 0.013228104775576923 -0.04249664885729749 -0.018315269023659507 0 0 0 0
54000000 0.0031396430174652403 0.01242266691810239 -0.04339945070464911 -0.016126272428675786 0 0 0 0
55000000 0.0028372328097932263 0.012986795174049373 -0.04398270078268721 -0.013813115314940786 0 0 0 0
56000000 0.0032177283915465656 0.01380253701509544 -0.04452675028574547 -0.011430900763162163 0 0 0 0
57000000 0.003340395827487123 0.01359512526702109 -0.044889995055226145 -0.00915747216960923 0 0 0 0
58000000 0.0034493321867684135 0.013745650127591687 -0.0451622842401478 -0.006775125374783141 0 0 0 0
59000000 0.0036241805792220287 0.013886239731900915 -0.045408756611554274 -0.0044657333992339805 0 0 0 0
60000000 0.0036015140333148063 0.014661231074153427 -0.04542276313153982 -0.002232987869593042 0 0 0 0
61000000 0.004127985935926855 0.014299292778731265 -0.045372080832066355 0.0002059789954632048 0 0 0 0
62000000 0.0035557049324182327 0.014542896475521089 -0.04513396284126927 0.0024583085649424533 0 0 0 0
63000000 0.003934776429627526 0.015213022743422967 -0.044980627101393736 0.004851277620611205 0 0 0 0
64000000 0.0036434159791088176 0.015293116192881477 -0.044344952672653974 0.0070692472695487955 0 0 0 0
65000000 0.0036517445906226464 0.015390431692442 -0.043845975107357 0.009270064525462843 0 0 0 0
66000000 0.00413274540156045 0.016003013526289165 -0.04330092973878086 0.011461045302785907 0 0 0 0
67000000 0.00420403415240022 0.016095456512862726 -0.042471713706305245 0.013705435453215299 0 0 0 0
68000000 0.004239048937620656 0.016216964232974005 -0.04157960474391153 0.015748869104721303 0 0 0 0
69000000 0.004178553520829383 0.01674158008185241 -0.04066312540564229 0.017810213133391355 0 0 0 0
70000000 0.004221404199700274 0.01669627385099343 -0.039584818950211265 0.01981859525993642 0 0 0 0
71000000 0.004276211572559912 0.016484455688120847 -0.03832695776703977 0.021775664328079525 0 0 0 0
72000000 0.00458624764075642 0.017002973093565188 -0.03713178430073513 0.023588203041000066 0 0 0 0
73000000 0.004401523141359651 0.01754053707357838 -0.035694995623313734 0.025357947551227243 0 0 0 0
74000000 0.005185384476167308 0.016407238586277413 -0.03411122320507881 0.027075146923705065 0 0 0 0
75000000 0.004863398879562624 0.01751889557126833 -0.03277579686703047 0.028756094275827048 0 0 0 0
76000000 0.004941151353707093 0.017857605766537644 -0.031140861652663127 0.03031300482617602 0 0 0 0
77000000 0.004629932214812439 0.018140865350698986 -0.029483020391165734 0.0317195409884438 0 0 0 0
78000000 0.004815343991147775 0.018504083672308835 -0.027780033439481978 0.03308039147939804 0 0 0 0
79000000 0.0050708545062997535 0.01855574435889763 -0.025914011596122447 0.03431536585949886 0 0 0 0
80000000 0.005254395541797005 0.01885943996975522 -0.023999616088902154 0.035526169830672534 0 0 0 0
81000000 0.005296045755325487 0.019070350823883944 -0.02214607510022694 0.036627834248041384 0 0 0 0
82000000 0.005567850547107093 0.019407138314196545 -0.0202678966365269 0.03753497089144828 0 0 0 0
83000000 0.005431423466003182 0.019470355775944463 -0.01824506587552172 0.038471596438780446 0 0 0 0
84000000 0.005607063823153778 0.019985049877762662 -0.01619252671661544 0.039228858429600964 0 0 0 0
85000000 0.005858799590774292 0.020177337148521036 -0.014082966802084328 0.039904302901498 0 0 0 0
86000000 0.006368586591676436 0.02064366355237677 -0.01207925326586772 0.04044070732236399 0 0 0 0
87000000 0.006493056866290059 0.020512858317562166 -0.009995168289559393 0.04092665107145715 0 0 0 0
88000000 0.00599735087291449 0.020930522176860422 -0.007979277690387148 0.04120490147909296 0 0 0 0
89000000 0.005934651300557223 0.021086063147426698 -0.005821174661729368 0.04141652474816535 0 0 0 0
90000000 0.006071164889618039 0.021312729021565145 -0.0037533374937562727 0.04155177740848594 0 0 0 0
91000000 0.006216092441100549 0.021351715609171033 -0.0015853318168958797 0.041485686208113014 0 0 0 0
92000000 0.0065668388442003765 0.02185508277643312 0.00048418230333136105 0.041411884319642836 0 0 0 0
93000000 0.006457146253123723 0.022154207141109536 0.0024580349662532484 0.041238219160536244 0 0 0 0
94000000 0.006352578071542988 0.02209563352983779 0.004449467031087702 0.04091132353817047 0 0 0 0
95000000 0.006586954483920214 0.022763524756386974 0.006502984918247403 0.040475386333474105 0 0 0 0
96000000 0.007147092869283342 0.022659276210829603 0.008455780465538755 0.03992914763551403 0 0 0 0
97000000 0.0073142153931296415 0.02315913713731826 0.010464491068153461 0.0393102266385182 0 0 0 0
98000000 0.006486910051812201 0.022538897632296176 0.012423476435058091 0.03859056974098412 0 0 0 0
99000000 0.007001674191779714 0.0236687354268074 0.014245231580153995 0.03780810051882698 0 0 0 0
100000000 0.007015015916260023 0.023362369538187287 0.016105820475300684 0.036834969812847944 0 0 0 0
101000000 0.007148033006885804 0.02380521249915206 0.01791361367283232 0.03587412807611013 0 0 0 0
102000000 0.007674103579839416 0.02435668340978769 0.019692446646886637 0.034752003285919264 0 0 0 0
103000000 0.006859153101862424 0.0242817015799156 0.021352699740595317 0.033642802737044925 0 0 0 0
104000000 0.007428856055769578 0.024390855796787136 0.023013123046764467 0.03247624632275221 0 0 0 0
105000000 0.00727859096652572 0.024351174698642664 0.024454022155177314 0.031025747999773985 0 0 0 0
106000000 0.007674345856100163 0.024934958424984027 0.02584131160952813 0.029628610587242563 0 0 0 0
107000000 0.007775156447453254 0.02525873222968457 0.027287660387375498 0.028221514887833025 0 0 0 0
108000000 0.007529865933676473 0.025480825575183642 0.028474238837115 0.026778259561029232 0 0 0 0
109000000 0.00799746337429962 0.025899467632965207 0.029722833325402032 0.02504716033187635 0 0 0 0
110000000 0.007791938469788319 0.026187251667103745 0.030832612923978157 0.023491575680118115 0 0 0 0
111000000 0.008047059370200118 0.026429734286868168 0.03185489959213891 0.021875846531754634 0 0 0 0
112000000 0.007843980129418454 0.02588225047279011 0.03273939336219629 0.02024369816284481 0 0 0 0
113000000 0.008019801972990728 0.0265785383963143 0.0336230783462298 0.018426207581828363 0 0 0 0
114000000 0.008021469256515404 0.027040499314766604 0.03437406255252195 0.01658283038546443 0 0 0 0
115000000 0.008334744867669863 0.02763511460931074 0.03501780776066942 0.014814203672573177 0 0 0 0
116000000 0.008329685534873897 0.027860241589403357 0.03557538658538898 0.01296310269209446 0 0 0 0
117000000 0.00843600447840871 0.027759119136710197 0.03598481579115158 0.011124026779069991 0 0 0 0
118000000 0.008323649474881397 0.02787659058109092 0.03642111013226943 0.009226452354790634 0 0 0 0
119000000 0.008750439258462582 0.028507401309942847 0.03666220578160016 0.007364524615207514 0 0 0 0
120000000 0.008701475117613976 0.0284940125896695 0.036898513949047404 0.005516329261066402 0 0 0 0
121000000 0.008485608795498843 0.0284466826246661 0.03688515565636377 0.0036198770153550008 0 0 0 0
122000000 0.008626392814568172 0.02859509432177736 0.03700048818763904 0.0018088600567530482 0 0 0 0
123000000 0.008873494056949984 0.028851327143359872 0.036807826767083676 -4.607160463977342e-05 0 0 0 0
124000000 0.008902413343616607 0.029213007366036412 0.03663179990227042 -0.001916106590041698 0 0 0 0
125000000 0.008570411830611933 0.02980495613033099 0.036387645438585636 -0.003725368526697483 0 0 0 0
126000000 0.008899164311829822 0.029759343084505847 0.035987440553530044 -0.005492843529327364 0 0 0 0
127000000 0.008406609581641815 0.030135739914080174 0.035472892583053084 -0.0072132368411568296 0 0 0 0
128000000 0.009000109553712958 0.03070701981946587 0.03496565362199071 -0.008933140707000586 0 0 0 0
129000000 0.009091775387931524 0.030589745362361472 0.03427097059935036 -0.010680548006321034 0 0 0 0
130000000 0.009000726673835549 0.030839439154690805 0.033576961933167934 -0.012303651069231307 0 0 0 0
131000000 0.008956838198029223 0.030721513316613387 0.03276625661594109 -0.01394568834899776 0 0 0 0
132000000 0.009198385675968 0.030965479115490042 0.03185767047838466 -0.01545665497205957 0 0 0 0
133000000 0.009582227355331539 0.031352323413604034 0.030918176622965327 -0.017018176870382228 0 0 0 0
134000000 0.009595114489286126 0.032043296299743326 0.02990836196031535 -0.018315298366526254 0 0 0 0
135000000 0.009312754800704919 0.03226588209188457 0.028824883179072714 -0.019714945926967313 0 0 0 0
136000000 0.009209245739470809 0.032106820283641764 0.027652345598754298 -0.02105107768732475 0 0 0 0
137000000 0.009387568469332913 0.03209319887890104 0.026527210092406873 -0.022325027873337327 0 0 0 0
138000000 0.010153369800403244 0.032192068069687226 0.025202004143849467 -0.023558738160592375 0 0 0 0
139000000 0.010008158137103191 0.03260459051214381 0.023925199603085794 -0.024597548760731457 0 0 0 0
140000000 0.00968407296295241 0.03296752336535626 0.02258047820546384 -0.025606691193671108 0 0 0 0
141000000 0.009833699903641451 0.03334257946912595 0.021134732091262348 -0.026475675959686053 0 0 0 0
142000000 0.009309613309980636 0.03331849973627859 0.019737062442593097 -0.027377732914689215 0 0 0 0
143000000 0.01049955285494379 0.03366747339357484 0.01818768102762601 -0.028185409669240588 0 0 0 0
144000000 0.010152558629403802 0.03253949262255488 0.016655753429473463 -0.028888755639082254 0 0 0 0
145000000 0.009596468162992684 0.033560378783391555 0.015051037807760681 -0.029653778181412332 0 0 0 0
146000000 0.009866848430853855 0.03363827950651817 0.013631492078540574 -0.030131896162268183 0 0 0 0
147000000 0.00917175638752154 0.03457786551122648 0.012050215744252022 -0.030722479983776037 0 0 0 0
148000000 0.010367985292673285 0.03453005127991301 0.010557280620719757 -0.03108495568712589 0 0 0 0
149000000 0.010467140559981046 0.034647894822578205 0.00889285881850636 -0.03150367657303617 0 0 0 0
150000000 0.010528323492764719 0.03497002522984343 0.007410394303771085 -0.03170577927217217 0 0 0 0
151000000 0.010226989129481645 0.03581986690456468 0.005717013031675372 -0.03188446891566096 0 0 0 0
152000000 0.010979493055054138 0.035115846225987346 0.004011364048683897 -0.03190983470440582 0 0 0 0
153000000 0.009991065883556222 0.035312332860771206 0.002357524551195945 -0.031907387884701925 0 0 0 0
154000000 0.010541964125978805 0.03551412697512793 0.0009408463674630107 -0.03177257440476212 0 0 0 0
155000000 0.010442601799440123 0.035620790103557384 -0.0007133086592202941 -0.03182170354593439 0 0 0 0
156000000 0.01022437620124834 0.03651261576043081 -0.0021301953291153774 -0.03138262366568846 0 0 0 0
157000000 0.010845364024152046 0.036348136335309436 -0.0036492112363917173 -0.031235337060998646 0 0 0 0
158000000 0.011471624628133222 0.03575058116046695 -0.005250943894301919 -0.03074777239709442 0 0 0 0
159000000 0.010463852177829799 0.03691510131234225 -0.006687505010325322 -0.030328780383624108 0 0 0 0
160000000 0.010644444284689756 0.03584512895574948 -0.008058723854263039 -0.02981972194802481 0 0 0 0
161000000 0.010820710414901 0.03709065886509698 -0.009674778306954639 -0.02922323997033442 0 0 0 0
162000000 0.010267415057894523 0.037846718556076346 -0.01093588738728413 -0.028662543387916083 0 0 0 0
163000000 0.010661718365477357 0.037652293574802154 -0.01233333382017558 -0.027901699972807066 0 0 0 0
164000000 0.011182186265494854 0.03799350678760039 -0.0133729902954951 -0.02719713646437081 0 0 0 0
165000000 0.01162641600216179 0.03812152120114047 -0.014684227605396815 -0.026425742314947914 0 0 0 0
166000000 0.011006669287562575 0.038241115400717327 -0.016054075043762214 -0.025339483440062992 0 0 0 0
167000000 0.01201795482302133 0.03805779166764206 -0.016956635348369522 -0.02456032270049734 0 0 0 0
168000000 0.01161762742440535 0.0381723139725399 -0.01825892768941092 -0.02358328770679017 0 0 0 0
169000000 0.010955363341497397 0.03874856576904777 -0.019001437167516098 -0.02249703109718393 0 0 0 0
170000000 0.011972767226826032 0.03850134496957846 -0.02003914634530847 -0.02143314117507806 0 0 0 0
171000000 0.011259364126559116 0.03905837833734436 -0.021169875756693206 -0.020449132412250617 0 0 0 0
172000000 0.0119081370999523 0.04032087925683381 -0.02201468539568925 -0.019128474944169322 0 0 0 0
173000000 0.01128313215568351 0.039473964597639466 -0.02273188561476813 -0.018044528179680892 0 0 0 0
174000000 0.01199026195881937 0.039806005947942244 -0.023508065196179383 -0.016697771769571386 0 0 0 0
175000000 0.011652328782056793 0.03963858237333929 -0.024297865874297997 -0.015375204930911966 0 0 0 0
176000000 0.011525695347046401 0.04035915557874113 -0.024744167014718585 -0.01438820650684297 0 0 0 0
177000000 0.012003354432144443 0.04052032082033143 -0.025289747162857788 -0.013096242917777648 0 0 0 0
178000000 0.012258656133114812 0.040690433920592614 -0.02572150810140889 -0.011718266035807215 0 0 0 0
179000000 0.01248144404061054 0.03978924087357927 -0.026123333573507303 -0.010289054024706576 0 0 0 0
180000000 0.012521792019527515 0.040521468980223734 -0.02668871473363546 -0.00893530494773418 0 0 0 0
181000000 0.012119678778545051 0.04050252676474252 -0.02667234529045514 -0.007697197063518219 0 0 0 0
182000000 0.012115946824022974 0.041555480961508594 -0.026908959284258824 -0.006450825932938928 0 0 0 0
183000000 0.01286379079722399 0.04133346991621553 -0.027103644385021712 -0.005092851695449845 0 0 0 0
184000000 0.012340287886709735 0.04120519119153993 -0.02723683294819189 -0.003813558742750019 0 0 0 0
185000000 0.013006868467090848 0.04141413871206253 -0.027117401815492923 -0.0023978505437137272 0 0 0 0
186000000 0.013382271117937456 0.04222149302339178 -0.02711720021994302 -0.0009495152443635426 0 0 0 0
187000000 0.01231600750966221 0.042195805959554085 -0.02699982168415627 0.00035172317657770127 0 0 0 0
188000000 0.013366010584739227 0.041866452692063565 -0.02673367524155777 0.0014412926536380496 0 0 0 0
189000000 0.012488631102590691 0.04283589048299037 -0.026559476271516863 0.0028625294963922844 0 0 0 0
190000000 0.013292017121534626 0.04279349082281545 -0.026207846793971975 0.0040408130110376845 0 0 0 0
191000000 0.012586815980628883 0.04218757943636951 -0.0259363341905637 0.005377736598446902 0 0 0 0
192000000 0.013641004464889793 0.04358188130139615 -0.02548823801658119 0.006440731421806803 0 0 0 0
193000000 0.013695322005921403 0.04318300223689796 -0.02495124254623005 0.007779738878601001 0 0 0 0
194000000 0.013136427809107332 0.043435548716509446 -0.024437028865225856 0.008816344219189245 0 0 0 0
195000000 0.012991852612929672 0.043947490633935216 -0.02384338200862752 0.010018979291493927 0 0 0 0
196000000 0.013700306983277278 0.04340633185019208 -0.02345674074306741 0.0110692890899973 0 0 0 0
