# HZ S RI R 50
1000000 -0.0007557762223889855 0.0004883732206970414 0.047957483941480604 -0.0030792781774548503 0 0 0 0
2000000 -0.0006626229611956118 0.0005681864585913302 0.049395659061698106 -0.0037520206460929404 0 0 0 0
3000000 -4.1895362471257996e-05 0.0010919538321209306 0.04928950575015226 -0.005876550751575036 0 0 0 0
4000000 0.0002043302492327192 0.0010634125555661073 0.04890821583116836 -0.007954703495356702 0 0 0 0
5000000 0.00018020270779453814 0.0010957075319856593 0.048502176304026236 -0.009913442533607856 0 0 0 0
6000000 -9.686502539047416e-05 0.002459681732898163 0.04792177092976938 -0.01189457969197681 0 0 0 0
7000000 0.0001116508574196935 0.002135058733653469 0.047361771564244856 -0.01367011661356591 0 0 0 0
8000000 0.0003995763805157843 0.0026243364198892697 0.04676304608639502 -0.0155264622527298 0 0 0 0
9000000 0.0007142244439543527 0.0022749363160397096 0.046123817286303236 -0.017280204825735074 0 0 0 0
10000000 0.0001292066055919455 0.002679884578653161 0.04542693555479979 -0.019077252165176146 0 0 0 0
11000000 0.00023312197952404345 0.002807854542293381 0.04462780547485642 -0.020803435866780556 0 0 0 0
12000000 0.00041665748834052114 0.0037083823994623587 0.04390195461048559 -0.022576597943906207 0 0 0 0
13000000 0.0005644155608715726 0.0035815714793009583 0.043074283987173584 -0.024256506275119962 0 0 0 0
14000000 0.0002884270476315541 0.003472273894500112 0.04209661810489182 -0.026065749295197026 0 0 0 0
15000000 0.0009477562105689172 0.004033800782583984 0.0410858862521754 -0.02765846946988623 0 0 0 0
16000000 0.0011791508771223636 0.0037125231087671326 0.040055773612246 -0.029423696321254633 0 0 0 0
17000000 0.0006820252006387574 0.004847031771453314 0.038911149668957944 -0.03094143555422479 0 0 0 0
18000000 0.0010594727270585185 0.00445149880268043 0.03769976574890272 -0.03262573964803283 0 0 0 0
19000000 0.001135065041810342 0.0048245811340300645 0.03632362543900747 -0.03414644260945563 0 0 0 0
20000000 0.0009657083715515342 0.0050284169533411985 0.035136053430631684 -0.03562440516365452 0 0 0 0
21000000 0.0012597322276809426 0.0053350579282049875 0.033604236193417535 -0.03710410519006471 0 0 0 0
22000000 0.0011267377238276487 0.005448913817137153 0.032121481994488964 -0.03844163841196747 0 0 0 0
23000000 0.0008280258263891682 0.0056397284676849135 0.030551371551547978 -0.039819396867752925 0 0 0 0
24000000 0.0012662175421769267 0.0060101542435262445 0.028972434570716583 -0.04108331474495774 0 0 0 0
25000000 0.0009995526954510753 0.006217611812447408 0.027329210075171206 -0.042256937319725525 0 0 0 0
26000000 0.001458579884583306 0.006539617254749216 0.025703850593338518 -0.04347809351783467 0 0 0 0
27000000 0.0012360014288697887 0.006760050179617728 0.023846262084728197 -0.04452641352485123 0 0 0 0
28000000 0.0015175863631581943 0.006958471036311952 0.021973933565420566 -0.045496040246190805 0 0 0 0
29000000 0.001599595075180816 0.00691567198397964 0.02018506396949489 -0.0464296548838565 0 0 0 0
30000000 0.0016133402063840396 0.007180055098270422 0.018307131924377645 -0.04730895459967591 0 0 0 0
31000000 0.0016195399327770595 0.007555371764898796 0.016444455972320405 -0.04804187366434391 0 0 0 0
32000000 0.0012333544761489958 0.008199429590438512 0.014422477838525353 -0.048740902891600844 0 0 0 0
33000000 0.002098360820010238 0.008257801582387191 0.01251707661426756 -0.04938604182246862 0 0 0 0
34000000 0.0016636739287921214 0.008251976681912894 0.010506626836553224 -0.050035421203259996 0 0 0 0
35000000 0.0018849828426074353 0.008249395224773073 0.008512268963005849 -0.05044451644590387 0 0 0 0
36000000 0.002087797335566177 0.008571937678008821 0.006451680394944534 -0.0507983953588473 0 0 0 0
37000000 0.0019359947866594712 0.008539479692171495 0.00444134770186522 -0.051204233972134465 0 0 0 0
38000000 0.0022128416169126955 0.008884153010771244 0.002320786882226561 -0.051377165559104085 0 0 0 0
39000000 0.00170576272283927 0.00916403186311388 0.00015640637173988724 -0.05150401630519606 0 0 0 0
40000000 0.00221729998004157 0.00969780915642561 -0.0018801404093541346 -0.05156455627196461 0 0 0 0
41000000 0.0024752689412159655 0.009753761775993975 -0.004072905738988104 -0.05181992330075333 0 0 0 0
42000000 0.002282551596233712 0.010011202099917228 -0.006170560936682738 -0.051500335784538394 0 0 0 0
43000000 0.0024573564391947027 0.009922165534264692 -0.008227555555050364 -0.05122971692365311 0 0 0 0
44000000 0.0019819561728777503 0.010305200013425109 -0.01030952089283811 -0.05104012719909982 0 0 0 0
45000000 0.002757928699398002 0.010625445315458582 -0.012452321595110954 -0.05056984517564805 0 0 0 0
46000000 0.002506330850281386 0.01059716516334546 -0.014477359309552854 -0.050201693885524215 0 0 0 0
47000000 0.0029558216182150486 0.011307721241158062 -0.016539653061757503 -0.04966993216924447 0 0 0 0
48000000 0.0027826703976283327 0.011506685036860947 -0.01855036384129552 -0.049090594433629384 0 0 0 0
49000000 0.0029982194972316438 0.011547134713042655 -0.020597935673854973 -0.048524151962403686 0 0 0 0
50000000 0.003284357804618455 0.01166655039736884 -0.022696605862153472 -0.04772520226763869 0 0 0 0
51000000 0.002693529614114026 0.011924779479058284 -0.02460692828680466 -0.046824882622351016 0 0 0 0
52000000 0.0034558368151403544 0.012116106937721895 -0.026586170356423598 -0.04602691359230049 0 0 0 0
53000000 0.003098664708352882 0.0123475644572483 -0.02852817765353036 -0.04496410837954267 0 0 0 0
54000000 0.003512075777154058 0.012707449327113233 -0.030399796728767012 -0.04389517420450623 0 0 0 0
55000000 0.0034801169128351483 0.01283337537651202 -0.03217756797832125 -0.0427838294073657 0 0 0 0
56000000 0.0032943399838351673 0.013340495493564546 -0.03414104692483654 -0.041504530537030494 0 0 0 0
57000000 0.00379622804439879 0.013518475538087733 -0.03582150072889693 -0.040168158750542256 0 0 0 0
58000000 0.0037524075345317315 0.01344209243158785 -0.03751736078940801 -0.03872472582301372 0 0 0 0
59000000 0.003688392367478625 0.013685943377690227 -0.03924424148444923 -0.03736720660331318 0 0 0 0
60000000 0.003745088251606524 0.014423747655041256 -0.04074834256888637 -0.03591053032761167 0 0 0 0
61000000 0.003953571833031087 0.014024128084897546 -0.042330719533793325 -0.03421332431343551 0 0 0 0
62000000 0.003842352664073888 0.014688798524033573 -0.04376015145074693 -0.03264258746988543 0 0 0 0
63000000 0.004143295982037538 0.014565659557820564 -0.04534967917058687 -0.030892100582979098 0 0 0 0
64000000 0.00372338360659585 0.01529623591026528 -0.046592992605316165 -0.02913454766226692 0 0 0 0
65000000 0.00397556286360309 0.015342966257405624 -0.04795241239188361 -0.027308829014650062 0 0 0 0
66000000 0.0044075193848794915 0.015116657031305243 -0.04921672559687815 -0.025477407993701285 0 0 0 0
67000000 0.0039037939807048455 0.016003470927195708 -0.050451073243617424 -0.023531203074654946 0 0 0 0
68000000 0.0039977202018932215 0.015936873472063975 -0.05158898901151736 -0.02158795280760476 0 0 0 0
69000000 0.004416052032194032 0.016067583379996742 -0.05267072576496815 -0.01946145551862453 0 0 0 0
70000000 0.004475658205002042 0.01624407748506351 -0.053547009140624525 -0.017348755996290224 0 0 0 0
71000000 0.004284781001088356 0.016505864233575435 -0.054411725393523264 -0.01521403936832883 0 0 0 0
72000000 0.004208616760114257 0.01684660134952451 -0.05529184173906528 -0.013022040410421562 0 0 0 0
73000000 0.0046150032370961686 0.017222180029454283 -0.0560190035234394 -0.010789653465177346 0 0 0 0
74000000 0.004944976375027269 0.0162430718180304 -0.05656576771139079 -0.00847081014293942 0 0 0 0
75000000 0.004874710028754743 0.017587838584990637 -0.05718261181676953 -0.00616929295400529 0 0 0 0
76000000 0.0047822277063478535 0.017977009383180847 -0.057603282552394504 -0.0038226049761009634 0 0 0 0
77000000 0.004790842844356584 0.018166173549602992 -0.05794181237751729 -0.0013780202846975509 0 0 0 0
78000000 0.005204610701290386 0.018168869885801554 -0.058142400378432 0.0009739797408597093 0 0 0 0
79000000 0.0049338616405446315 0.018382687000648375 -0.05834555509718317 0.0033461216577833743 0 0 0 0
80000000 0.005456232757499337 0.01845710020831157 -0.05838699081093597 0.005845664911077126 0 0 0 0
81000000 0.005014667718580526 0.018728364219687342 -0.05826579847489762 0.00828052457368892 0 0 0 0
82000000 0.005479591683067211 0.01907498101327499 -0.05824510227458652 0.010700481725884477 0 0 0 0
83000000 0.005716365137976958 0.019238245777485688 -0.05804791338737845 0.013153337489969512 0 0 0 0
84000000 0.005524269265659816 0.019705480532927328 -0.05763095293398189 0.01565285005712327 0 0 0 0
85000000 0.005872499147996028 0.019845991586421054 -0.05721832098760262 0.018112474558697852 0 0 0 0
86000000 0.006166183797587187 0.020687001255829913 -0.0566947169920218 0.02068471019336717 0 0 0 0
87000000 0.006418340029172817 0.02079789728045439 -0.056069456638374454 0.023105513761040093 0 0 0 0
88000000 0.00600689229662722 0.020648655236828968 -0.05545881445765798 0.025491751945251134 0 0 0 0
89000000 0.0062639204932795544 0.020629416757172534 -0.05456280082046522 0.027914797651098833 0 0 0 0
90000000 0.0062380490720038125 0.021116136748339547 -0.0536242048593608 0.030333376899644847 0 0 0 0
91000000 0.006680337429783592 0.020908275323070304 -0.05265820501499915 0.032689215975228884 0 0 0 0
92000000 0.007011619163294635 0.021586902449291834 -0.051554528872745475 0.03508662749650787 0 0 0 0
93000000 0.006743316291605152 0.02214991091643897 -0.050447501868871154 0.037458494017756507 0 0 0 0
94000000 0.006897726187488029 0.02228024445798176 -0.049117214718057134 0.039688838209520454 0 0 0 0
95000000 0.006595010200798542 0.022757163774280536 -0.04768120848974544 0.04190362573089093 0 0 0 0
96000000 0.007005592590879011 0.02247493517373498 -0.04618660569391811 0.044087893323045475 0 0 0 0
97000000 0.007009990426507396 0.023142422627654903 -0.0446422836325696 0.0462326194896879 0 0 0 0
98000000 0.007026908898808122 0.02277605498326181 -0.04279919057410176 0.048382687634340345 0 0 0 0
99000000 0.006893121133149101 0.02337541272068165 -0.0410568646891839 0.05048144308703366 0 0 0 0
100000000 0.00640611284706231 0.02329647594415997 -0.03899698956850053 0.05256558373950593 0 0 0 0
101000000 0.007001356950144268 0.024262723885454484 -0.03700576202111464 0.05447635757057219 0 0 0 0
102000000 0.0074206529845223124 0.023992231279734003 -0.03480608049675364 0.05641466526105164 0 0 0 0
103000000 0.007197951671273073 0.024014428058840832 -0.03269847596485129 0.05812760671782194 0 0 0 0
104000000 0.007413949252826409 0.02438065872516543 -0.030376077337778525 0.05994100230352561 0 0 0 0
105000000 0.007064192462840885 0.024735856093608673 -0.028118183222294722 0.06146806072258231 0 0 0 0
106000000 0.007361418997063178 0.025000514295694068 -0.025657588158084242 0.06306723864531866 0 0 0 0
107000000 0.007263805977115047 0.024931333247051074 -0.022987386011427902 0.06454212972065808 0 0 0 0
108000000 0.007677653313434419 0.025203877990706332 -0.020517578774225376 0.06596049042242086 0 0 0 0
109000000 0.008023328228341769 0.026070403745997332 -0.017756787018961245 0.06720972014512451 0 0 0 0
110000000 0.007604015230745673 0.026287678286500377 -0.0149782774494633 0.06834068017132726 0 0 0 0
111000000 0.007740523714639247 0.026461402149170303 -0.012183996854935708 0.06943890028450668 0 0 0 0
112000000 0.00765753663064042 0.026001008105129137 -0.009337256767147946 0.07044318530556438 0 0 0 0
113000000 0.007683065269518846 0.026837461353145322 -0.006351330277500484 0.07130063507274483 0 0 0 0
114000000 0.0077944469233419 0.0270096813306768 -0.003339614047475319 0.07198062084745212 0 0 0 0
115000000 0.00805379871129566 0.027620881557398155 -0.0002830661815232611 0.07267470945569426 0 0 0 0
116000000 0.008029041468244963 0.027863657837941782 0.0030246881552282363 0.07320342297320397 0 0 0 0
117000000 0.00800640654191372 0.02798074463588376 0.00612191685459677 0.07351383893466695 0 0 0 0
118000000 0.008122230396910264 0.028017194019743803 0.009462678474751083 0.07371313527162882 0 0 0 0
119000000 0.008411912409693183 0.028665780780727495 0.012644627333510494 0.07390028988999041 0 0 0 0
120000000 0.008369098062130024 0.028466643930072682 0.015865965756932783 0.07393995570928429 0 0 0 0
121000000 0.008680075166289056 0.028679581153647028 0.01928858997919898 0.0737509622485366 0 0 0 0
122000000 0.008703040283074052 0.029150941436029348 0.02288689843374688 0.07338110533751954 0 0 0 0
123000000 0.008479872140516948 0.029344086744398895 0.026179250820482124 0.0730372551169002 0 0 0 0
124000000 0.00854023872578702 0.029380718185556504 0.029688987297318743 0.07246799229175829 0 0 0 0
125000000 0.008367837317360119 0.029744904055294667 0.03303933681372929 0.07169470194717283 0 0 0 0
126000000 0.008764390089483026 0.02965124471268304 0.03642325529015655 0.07079318849080132 0 0 0 0
127000000 0.008712514747167851 0.03054179574759699 0.039922407888367546 0.06982938733291034 0 0 0 0
128000000 0.008418768926034825 0.030601822729651545 0.04335502028698349 0.06869973256874146 0 0 0 0
129000000 0.008803341841022438 0.03058727542130166 0.04685167705647177 0.06720775352637427 0 0 0 0
130000000 0.008931881150122657 0.03111276766631259 0.050215598622671366 0.06577311437855346 0 0 0 0
131000000 0.0087778337384275 0.0313392355995592 0.05364941708515821 0.06396584102306743 0 0 0 0
132000000 0.008828932047750683 0.030987228232920678 0.05689761424549485 0.062214493368924324 0 0 0 0
133000000 0.008838461057131505 0.0315504774394694 0.06029012933805533 0.06011366394988845 0 0 0 0
134000000 0.008974347027744434 0.03208880733018409 0.06358649789949312 0.05809334030982819 0 0 0 0
135000000 0.009197610807661974 0.03235351096858512 0.06680517968511082 0.05575302216311233 0 0 0 0
136000000 0.009087272217596195 0.0323586567074726 0.06996758444087482 0.053200607728390005 0 0 0 0
137000000 0.008863669585056395 0.03284335219105967 0.07306237872708461 0.05056714326231121 0 0 0 0
138000000 0.009384992570879913 0.033089521184533545 0.07616054269858352 0.04765615974541482 0 0 0 0
139000000 0.00939142718768832 0.03293066472148303 0.07919057198030689 0.04466732440182291 0 0 0 0
140000000 0.009274885402963565 0.03370753206588863 0.08204222588847385 0.04147359878343312 0 0 0 0
141000000 0.009408874978302343 0.03360479874262124 0.08474110302482986 0.037939462356001 0 0 0 0
142000000 0.009027245359144204 0.033879367613054254 0.08752754380008486 0.0346276447880799 0 0 0 0
143000000 0.009672894146360246 0.03428628962199407 0.08990467387947301 0.030834413983962746 0 0 0 0
144000000 0.00825007523600529 0.034202856434457474 0.09228585471687957 0.026924791130171717 0 0 0 0
145000000 0.008781847802413423 0.034719980104213295 0.09479001631267342 0.022714329696418123 0 0 0 0
146000000 0.009497235088998003 0.03444888859644358 0.09680463049144415 0.018651832660356013 0 0 0 0
147000000 0.008713430940104109 0.035269621230629544 0.09878683083450229 0.014235176686042478 0 0 0 0
148000000 0.009185370375539417 0.035222392692799906 0.10062138807977046 0.009694284327001356 0 0 0 0
149000000 0.00935068602381763 0.035523992937567146 0.1025072607498725 0.00503580383811047 0 0 0 0
150000000 0.009442230751728616 0.03621261774654066 0.10414875243973304 4.732703615956831e-05 0 0 0 0
151000000 0.009764930188360882 0.036314743069731766 0.10535084281681618 -0.004955872102773049 0 0 0 0
152000000 0.009424459274603971 0.035754181393300645 0.1063918290008471 -0.010125761153631297 0 0 0 0
153000000 0.0088442759221597 0.03583805497484379 0.10721908230592238 -0.01540437405838515 0 0 0 0
154000000 0.009263204238406202 0.036826497907628146 0.10779245452750454 -0.0207267947164433 0 0 0 0
155000000 0.009914755748972971 0.036106303236228834 0.10843843183551741 -0.02651630290785615 0 0 0 0
156000000 0.009616860683190556 0.036804759113545985 0.10860411805145179 -0.032141556814909725 0 0 0 0
157000000 0.010471620544857967 0.03789975129987811 0.10857987094728717 -0.03833149723071002 0 0 0 0
158000000 0.01056696060867156 0.037028785246463206 0.1079023618131057 -0.04409913899849026 0 0 0 0
159000000 0.010097435749866185 0.03771201016599484 0.10742641232333547 -0.050350575226490044 0 0 0 0
160000000 0.009680379856092066 0.037292148720124575 0.1064254718847152 -0.056659366342704166 0 0 0 0
161000000 0.010254559914525762 0.037625270231015424 0.1048989782885093 -0.06284499045957474 0 0 0 0
162000000 0.010239356070302925 0.038092291283651165 0.10328318424799728 -0.06970636018323263 0 0 0 0
163000000 0.010155714332225993 0.03874687098683516 0.10132949645680626 -0.0759676665971496 0 0 0 0
164000000 0.010028013407551368 0.03804348013223812 0.09901782974876733 -0.08268749536358946 0 0 0 0
165000000 0.010561416941757872 0.03872174862633921 0.09637978132378584 -0.08942978858614489 0 0 0 0
166000000 0.010029870902695387 0.03939236496365088 0.0929232196480961 -0.09598985817211818 0 0 0 0
167000000 0.010867173461322769 0.03891783122124233 0.08957519648869523 -0.10283394639978935 0 0 0 0
168000000 0.010885724701390617 0.039176805655604524 0.08512557341341065 -0.10974180634594853 0 0 0 0
169000000 0.009639337977225099 0.038918699829941554 0.08042545700870048 -0.11624048732428147 0 0 0 0
170000000 0.011112868109050858 0.03966897279710373 0.07530941591911512 -0.12274960805435915 0 0 0 0
171000000 0.010231644816445147 0.03955094178414177 0.06934081251400548 -0.12994482467187904 0 0 0 0
172000000 0.011104795268542194 0.040824134085766885 0.0632471670813249 -0.1361156256677152 0 0 0 0
173000000 0.009855476053502628 0.04000449155411051 0.056244643639443724 -0.1424485801688202 0 0 0 0
174000000 0.010951530265454569 0.04014143257632893 0.04863373480958856 -0.14837520964078607 0 0 0 0
175000000 0.010815281438267274 0.04064838786386072 0.04038031940753943 -0.1544875766811505 0 0 0 0
176000000 0.010809574406000921 0.04115413638222341 0.031620924683536056 -0.15998663500050697 0 0 0 0
177000000 0.010765467471054285 0.041830103557575014 0.02183849095480793 -0.16504225544756054 0 0 0 0
178000000 0.010813144712026657 0.04137469566713204 0.011613573061406488 -0.16950987441243912 0 0 0 0
179000000 0.010738098147008926 0.04137031256345627 0.0006468247799631254 -0.1736759734175811 0 0 0 0
180000000 0.010740940504704477 0.04139935577023196 -0.011096022781092915 -0.17719674200664728 0 0 0 0
181000000 0.01179716878195509 0.04147643766343767 -0.02372126755147215 -0.1795004158811393 0 0 0 0
182000000 0.010929211190863038 0.04263563459531371 -0.03638497702066173 -0.1815577045385216 0 0 0 0
183000000 0.01184858942598256 0.04303496636269955 -0.05065622897954053 -0.1824501579256074 0 0 0 0
184000000 0.011176180322799928 0.04258076075919104 -0.06490933279158227 -0.1820175982684556 0 0 0 0
185000000 0.011290653278050122 0.043043275085934085 -0.07973579495096102 -0.18034206826141336 0 0 0 0
186000000 0.011711809416320796 0.043346804462643745 -0.09508989020210776 -0.17713686916914914 0 0 0 0
187000000 0.010886525725219231 0.043177352147322365 -0.11095406493005613 -0.17220544665238924 0 0 0 0
188000000 0.011621620209021499 0.043885371412431935 -0.12589999965907647 -0.1657602601962144 0 0 0 0
189000000 0.010830443966701048 0.04346491291579546 -0.14209617600679245 -0.15769964858743019 0 0 0 0
190000000 0.011276791944274198 0.04399706586263083 -0.15681948046718205 -0.14768997644578555 0 0 0 0
191000000 0.010809715501138635 0.04376091667481379 -0.17110543266554568 -0.13553652493588766 0 0 0 0
192000000 0.011121904538637355 0.043457049869107624 -0.1848406106639926 -0.1215296948790228 0 0 0 0
193000000 0.012010424254981028 0.044124253071442826 -0.1964769017284101 -0.10580966407135613 0 0 0 0
194000000 0.011907627947294802 0.0450871899108488 -0.20675173068939923 -0.08826897691907794 0 0 0 0
195000000 0.011668295852914363 0.044788065613894146 -0.2145317620399883 -0.0691046170568964 0 0 0 0
196000000 0.011663968036549116 0.044898879969087244 -0.22066896269283243 -0.04932467906042371 0 0 0 0
197000000 0.012145317709103284 0.04540762029813694 -0.22391630137745241 -0.028758611366633918 0 0 0 0
