# HZ S RI R 50
1000000 -0.0008876557329624547 0.00034213305668518215 0.046506891579516006 -0.003329863162924846 0 0 0 0
2000000 -0.00031888628255616786 0.0008036527945236352 0.047822173384645734 -0.004565364842569475 0 0 0 0
3000000 0.00021641373576912904 0.0009473272096317012 0.04758486138247651 -0.007093885089843251 0 0 0 0
4000000 -0.00028204279704318144 0.0010951314100987835 0.04710849047032625 -0.009511747961578065 0 0 0 0
5000000 -0.00016742531082917364 0.0014836754063404988 0.046410205548480174 -0.011844692526397372 0 0 0 0
6000000 -0.00021361940969735497 0.0027613967825333373 0.045626614263511445 -0.014100131337455095 0 0 0 0
7000000 0.0005776081619815305 0.0018936056914735798 0.04478484655754144 -0.01625821396864961 0 0 0 0
8000000 0.00031298449030066485 0.002372681941884255 0.04389466879946143 -0.018480792522343078 0 0 0 0
9000000 0.00044710026500054524 0.0024229835775600463 0.04292095397506203 -0.020458870672530646 0 0 0 0
10000000 1.282849107540937e-05 0.0028156539277421123 0.04191961360485817 -0.0224837764283955 0 0 0 0
11000000 -5.458476140455952e-05 0.0028396012118734556 0.04068334132490157 -0.02440245815590464 0 0 0 0
12000000 0.0006084389654508011 0.003256057367233886 0.03951990818654817 -0.026377421370347313 0 0 0 0
13000000 5.341945094297219e-05 0.0036302441809221418 0.03823101330526135 -0.028273653215854202 0 0 0 0
14000000 0.000547372291659819 0.00394744683440847 0.03678856319989034 -0.030160886987519224 0 0 0 0
15000000 0.0006965006191802745 0.0032394148083223512 0.035234817160025925 -0.03193402541018864 0 0 0 0
16000000 0.0010233936006273509 0.0037982680902971236 0.033684305770777724 -0.03364514436818505 0 0 0 0
17000000 0.00036916705315031195 0.004669813318847021 0.03198765524658966 -0.03522978336218327 0 0 0 0
18000000 0.0011774286387662284 0.0041688711950367925 0.030221372723673336 -0.03678603211905922 0 0 0 0
19000000 0.0010738478795767345 0.004767661157047931 0.02831540832289849 -0.03829614347257041 0 0 0 0
20000000 0.0007113314052799743 0.004994383463492861 0.026419284550280166 -0.03956306049251665 0 0 0 0
21000000 0.001149042936764255 0.0055736605389177 0.02437121109870571 -0.040865032390860534 0 0 0 0
22000000 0.0015358899146739405 0.005154094218499707 0.022311963232363095 -0.04203639474948216 0 0 0 0
23000000 0.0007131573831466578 0.005662107466655002 0.020165628776264526 -0.04308142198729068 0 0 0 0
24000000 0.0013466245201392913 0.006094863193873241 0.017984984747637416 -0.044024826253272205 0 0 0 0
25000000 0.0008733876042552178 0.0057441232097275325 0.015749511786118404 -0.04484405760687017 0 0 0 0
26000000 0.0012413887851300382 0.00631379171897411 0.013543753967883562 -0.045611426788556904 0 0 0 0
27000000 0.0010941755118293514 0.006243036120669485 0.011231404450718914 -0.04613557579710975 0 0 0 0
28000000 0.0016249910728481417 0.006495311092429368 0.008811630343993185 -0.04660854752542756 0 0 0 0
29000000 0.0011568838714053212 0.006912510681036431 0.006592767442435302 -0.046929530882382636 0 0 0 0
30000000 0.0014488726211568262 0.0070811089017886915 0.004152354631966768 -0.047293174205422374 0 0 0 0
31000000 0.0012588512615551095 0.007240480879836613 0.0019422020664320947 -0.04737718169163339 0 0 0 0
32000000 0.0014304283682721566 0.008044115452915033 -0.0005575965405900618 -0.047279135649938665 0 0 0 0
33000000 0.0017072336920293052 0.007523931250783994 -0.0028346601933597055 -0.04724242444515437 0 0 0 0
34000000 0.001407974998457998 0.008222941342142537 -0.005176446576522815 -0.046956018119463226 0 0 0 0
35000000 0.0013010889413528398 0.008102695400539102 -0.0074989560516224895 -0.04667334356293498 0 0 0 0
36000000 0.0023657061978795096 0.00855423784711915 -0.009800448213636834 -0.04610205082251452 0 0 0 0
37000000 0.0016480931478215053 0.008163353493509173 -0.011995721278130535 -0.045597828516973374 0 0 0 0
38000000 0.002070141218165807 0.008562130953959636 -0.014205233469762477 -0.044776540712547074 0 0 0 0
39000000 0.0017051523293546377 0.00886733843628563 -0.016532913772807523 -0.04407582041538398 0 0 0 0
40000000 0.002213660049895545 0.009216420255852878 -0.01861324089985374 -0.043010353033628386 0 0 0 0
41000000 0.002124383136478742 0.009331758922049353 -0.02058649450641188 -0.04212351095207584 0 0 0 0
42000000 0.002273384031492906 0.009681242579084383 -0.022877953549001327 -0.04095700691729131 0 0 0 0
43000000 0.002126343900780189 0.009535844128487049 -0.024759014714809135 -0.039785189422146136 0 0 0 0
44000000 0.0020962553306166985 0.010113319670772841 -0.026604272356325395 -0.03847057972272677 0 0 0 0
45000000 0.002256520146794289 0.010257172565676893 -0.028578678611667668 -0.03705006612503718 0 0 0 0
46000000 0.0020744307786461553 0.01022838617568134 -0.030300381189814995 -0.03558678668361891 0 0 0 0
47000000 0.0023436225908502802 0.010246317346033068 -0.03200221255490242 -0.03408658270477912 0 0 0 0
48000000 0.0026209167057842406 0.010724899791372148 -0.033546083726297415 -0.032403623094957805 0 0 0 0
49000000 0.002666401677966694 0.010973727674617947 -0.03500911101603271 -0.030608016856067205 0 0 0 0
50000000 0.003130824712586479 0.011551282326119858 -0.0364670299385483 -0.028857601438742712 0 0 0 0
51000000 0.0029141145904276106 0.011318898523420511 -0.03772790172995715 -0.02706970618771392 0 0 0 0
52000000 0.0030941645319489132 0.011316934985527282 -0.03912837045946323 -0.025090557206459318 0 0 0 0
53000000 0.0031535112116584884 0.011748971733689197 -0.040218426197886174 -0.02310183676068781 0 0 0 0
54000000 0.002642297852155699 0.011879990873335399 -0.0413440480408482 -0.02111642041897783 0 0 0 0
55000000 0.0031433680570179664 0.01261291793446193 -0.042181072851202144 -0.019067815186029298 0 0 0 0
56000000 0.003623612160599564 0.012699929202567144 -0.04307742898770872 -0.016911608559120217 0 0 0 0
57000000 0.003455011458387982 0.013274684003777244 -0.043747552504862945 -0.01478281730341019 0 0 0 0
58000000 0.003695197959129447 0.013216892132347013 -0.04436641420727285 -0.012482222382217342 0 0 0 0
59000000 0.00329888436130582 0.013145584831413024 -0.04492622055147221 -0.010327657946093749 0 0 0 0
60000000 0.003431097585508283 0.01340231553206987 -0.04528614613083432 -0.008293990837237647 0 0 0 0
61000000 0.003937036966745202 0.013702700507289608 -0.0456521013659261 -0.005865259432097283 0 0 0 0
62000000 0.00363450068587821 0.013604458253864795 -0.04571046466875809 -0.0037445003150018965 0 0 0 0
63000000 0.003705992632942122 0.014284955543050563 -0.04597108729151639 -0.00136758281130187 0 0 0 0
64000000 0.0032618257858705395 0.014581857520155096 -0.045820934537518 0.0008085992439709745 0 0 0 0
65000000 0.003680260210592348 0.014414497426989572 -0.045706335575383 0.003022592922109907 0 0 0 0
66000000 0.0038636908688513146 0.014628939584835564 -0.04541708692062665 0.00525684616215237 0 0 0 0
67000000 0.0036685239349426913 0.01529996636714434 -0.04508453271041341 0.007470110058155709 0 0 0 0
68000000 0.003942002045603648 0.015159711708816016 -0.04452266562874602 0.009646421172102375 0 0 0 0
69000000 0.004253592241083798 0.015355113231347143 -0.04405454475943627 0.01190324322516176 0 0 0 0
70000000 0.0042949428883821625 0.015374782121395595 -0.04330705896636442 0.013964679959219763 0 0 0 0
71000000 0.003682707894084386 0.01568085003385171 -0.04249930065211963 0.016048062199196873 0 0 0 0
72000000 0.003927197087175044 0.015669470439041367 -0.04170358653859527 0.018142530650102563 0 0 0 0
73000000 0.004345823112501948 0.016748554079454053 -0.040740498053223474 0.02011536073773515 0 0 0 0
74000000 0.003942024942307418 0.015223084519626293 -0.039461874266904395 0.022012234368023034 0 0 0 0
75000000 0.004329252951528812 0.016487117891166102 -0.038460076131028025 0.02391453390272114 0 0 0 0
76000000 0.004111439255707535 0.016646022021527505 -0.037112377484820616 0.025774399664350623 0 0 0 0
77000000 0.004143966882161731 0.017061022657473723 -0.035844937560473154 0.027570136609072295 0 0 0 0
78000000 0.004593906461692585 0.017095596578973013 -0.03444499339301611 0.02923329983197498 0 0 0 0
79000000 0.004918676897269015 0.01741323649586827 -0.03283912454632992 0.03092095949156917 0 0 0 0
80000000 0.004983052650308251 0.017944628850563395 -0.03129772646226588 0.0324917834195202 0 0 0 0
81000000 0.005097084161707547 0.01790206784680005 -0.02960484634446182 0.033922520541808304 0 0 0 0
82000000 0.005544526367151919 0.018063653622319525 -0.027966294509079587 0.03531132755481089 0 0 0 0
83000000 0.00562628606853746 0.018624356747399436 -0.026132331669394836 0.0365499218854907 0 0 0 0
84000000 0.005355116335265358 0.018414896070943113 -0.024335917192835562 0.03781206546290597 0 0 0 0
85000000 0.005680549526519527 0.018777901651347847 -0.02235483628735182 0.038961610070525274 0 0 0 0
86000000 0.0054897015943158375 0.019206466767857255 -0.020458850559101478 0.039953151034785354 0 0 0 0
87000000 0.00550446312699351 0.019586958902018645 -0.018516366681989867 0.04088406388253959 0 0 0 0
88000000 0.005669112205054233 0.019585026245243768 -0.016531610055761765 0.04172445393591626 0 0 0 0
89000000 0.005966330976388065 0.01970468287564931 -0.01447730323903501 0.04245492420024469 0 0 0 0
90000000 0.0058392119106389995 0.020157599802666317 -0.012331240915983237 0.04306548178732416 0 0 0 0
91000000 0.00598567462258439 0.020390798638111458 -0.010310281908800258 0.0436253352462483 0 0 0 0
92000000 0.005993931164588694 0.020780961108395734 -0.008179709027118162 0.044013519440753 0 0 0 0
93000000 0.005849357504196573 0.020984892164862216 -0.006114421961884652 0.0443438663536354 0 0 0 0
94000000 0.0059666947542213545 0.020755981750404457 -0.003903586140659443 0.04448835834314792 0 0 0 0
95000000 0.006116467035243455 0.021453113469915328 -0.0017212471435626455 0.04458453337423133 0 0 0 0
96000000 0.0065889503554084974 0.021566246997374878 0.0003747877963302403 0.04461561583774014 0 0 0 0
97000000 0.006331304162973962 0.022131158260030512 0.0025790449793224174 0.0444814812124643 0 0 0 0
98000000 0.00655481518185621 0.021841187589608402 0.004816965139880858 0.04430878188071471 0 0 0 0
99000000 0.006090625463105459 0.0224265400182068 0.006943815132270158 0.04402562087078175 0 0 0 0
100000000 0.005438695662438887 0.021947979772060422 0.00908531380417942 0.04358749694445441 0 0 0 0
101000000 0.00587247539292894 0.02278097149170779 0.011290517149770024 0.04304430055845262 0 0 0 0
102000000 0.00713796631688608 0.02249095512687016 0.013470698352039023 0.04243563471080349 0 0 0 0
103000000 0.006921814502092997 0.023296507832389936 0.015490489217986597 0.041735673031812734 0 0 0 0
104000000 0.006832462942242766 0.02329194814511129 0.017603797941219537 0.04089201410125179 0 0 0 0
105000000 0.006196969711423802 0.02319534242207642 0.019481153759143954 0.039969635248370376 0 0 0 0
106000000 0.0066886891177873236 0.023439724968183393 0.021396942532737117 0.038872939060738194 0 0 0 0
107000000 0.006833178375702471 0.023583300926074836 0.023364276523052743 0.03779469200580805 0 0 0 0
108000000 0.006829260781892519 0.024054689081898308 0.025120936601273847 0.036574297305598205 0 0 0 0
109000000 0.007000158804897428 0.02493316585146243 0.02689555207968952 0.03519131615094488 0 0 0 0
110000000 0.006824292985321601 0.025041111923630885 0.028556009032786774 0.03382988241831535 0 0 0 0
111000000 0.00686862942256261 0.025190682823070434 0.03012776171459573 0.032366640287092574 0 0 0 0
112000000 0.006814709979723727 0.02485458097760636 0.03167414769034483 0.03090645116030756 0 0 0 0
113000000 0.0070543985778072716 0.02503206205654226 0.03316845726365056 0.029199820485702663 0 0 0 0
114000000 0.007238643788418216 0.025589571513990564 0.034550467045197784 0.0275201892937907 0 0 0 0
115000000 0.007726674392963103 0.026332046083183444 0.035831196630366394 0.025780104290490203 0 0 0 0
116000000 0.007424528481863351 0.02658957678772926 0.03707050328406761 0.02402839529045118 0 0 0 0
117000000 0.006977890670420422 0.026352051723043654 0.038170618616677386 0.022005142450902786 0 0 0 0
118000000 0.007353618024974314 0.026543377892024843 0.03925055425729811 0.020070587209949073 0 0 0 0
119000000 0.007621960464823423 0.027197137633738988 0.0401571324448727 0.01814675858216062 0 0 0 0
120000000 0.007907911238755358 0.027089575218053653 0.04099363810916447 0.016141333444223593 0 0 0 0
121000000 0.007813218658115427 0.02742230143845642 0.0416599844768921 0.014055240717588093 0 0 0 0
122000000 0.007356575339562792 0.027819191332443417 0.04242409071361581 0.011955359074788651 0 0 0 0
123000000 0.007424168441775394 0.02751334500060038 0.04288059806163935 0.009795967199780148 0 0 0 0
124000000 0.007694254178518465 0.027532829506352767 0.043303745970584714 0.0076170358866945445 0 0 0 0
125000000 0.00793079204042394 0.028108607282983485 0.04363414219255975 0.00551984609817598 0 0 0 0
126000000 0.00808187290456 0.02835563927800934 0.04384422131108736 0.003356114563951446 0 0 0 0
127000000 0.007703281177208778 0.029228011578209773 0.04392915950283819 0.0011485337753739868 0 0 0 0
128000000 0.007755542162707529 0.028707540090374108 0.043934882639479006 -0.0010736527360412206 0 0 0 0
129000000 0.008411832922863037 0.02906260566767453 0.04381484115553602 -0.003178854288578483 0 0 0 0
130000000 0.008006972064068118 0.02987353430345742 0.043572026285617876 -0.005401511874455887 0 0 0 0
131000000 0.007858086137854483 0.02986971810277418 0.04316316256134826 -0.007598345996873706 0 0 0 0
132000000 0.007845119181461385 0.02967887721193696 0.04269858696877768 -0.009657822197008201 0 0 0 0
133000000 0.008144944845530652 0.029379031952946912 0.04218631611517163 -0.011954096450153889 0 0 0 0
134000000 0.00861159038323972 0.03019722803793244 0.041468159138242006 -0.013886240840740407 0 0 0 0
135000000 0.008399311291815622 0.03118477701819511 0.040649340152088195 -0.016069942328855266 0 0 0 0
136000000 0.007827781010808376 0.030928400315846087 0.03976284138352077 -0.018017553764146328 0 0 0 0
137000000 0.007874023762981835 0.03134218344352508 0.03879038486643529 -0.020110211048764617 0 0 0 0
138000000 0.00807413084962544 0.030610260692133486 0.03770616130207181 -0.021941696836855856 0 0 0 0
139000000 0.008832683326108362 0.03116986202412966 0.03654534776842365 -0.023734780851263033 0 0 0 0
140000000 0.007827882543001218 0.03166606574732774 0.03519367141359162 -0.025561076784375702 0 0 0 0
141000000 0.00860354507003336 0.03204647866949185 0.03387499864654856 -0.02725443513049275 0 0 0 0
142000000 0.007915678578633971 0.03189122937955974 0.03230871368205022 -0.02879796643871346 0 0 0 0
143000000 0.008978553591100277 0.032790953909440174 0.03070930501937088 -0.030513132844175072 0 0 0 0
144000000 0.008346539815874724 0.03275251218338918 0.02907773074586557 -0.03198978421783481 0 0 0 0
145000000 0.00844421193821664 0.03292806019958062 0.0274384823000765 -0.033437598933973675 0 0 0 0
146000000 0.008393399741724896 0.03254480762785492 0.025683817627930646 -0.034578348498117716 0 0 0 0
147000000 0.007669170836165592 0.0332911908709003 0.02392006741765141 -0.03587578132126211 0 0 0 0
148000000 0.00864552200010898 0.03350361705432853 0.02193238122991344 -0.036846721719676644 0 0 0 0
149000000 0.009319411645225496 0.033316792456999395 0.020133834235921605 -0.03795828015066472 0 0 0 0
150000000 0.009398892525463819 0.034102410499509246 0.01804101900045051 -0.038831644347096676 0 0 0 0
151000000 0.008499223507136586 0.034455501083378665 0.016045796789241437 -0.03974814755373923 0 0 0 0
152000000 0.008554670141960949 0.03432816266067183 0.013944361132393045 -0.04040683202936621 0 0 0 0
153000000 0.008435077838747916 0.03364035358663161 0.011728348583272449 -0.04099617780528925 0 0 0 0
154000000 0.008617705822674241 0.03484534636170998 0.009740498158533152 -0.04147517736853356 0 0 0 0
155000000 0.008948989876240928 0.0348751361449212 0.007545214050154844 -0.04190418912240066 0 0 0 0
156000000 0.008777068615268887 0.03561714571139892 0.005545612227212882 -0.04195277276194949 0 0 0 0
157000000 0.009116040241342035 0.03577090091798088 0.0034010336419944935 -0.04215023416340791 0 0 0 0
158000000 0.009005819335839084 0.03508542517412151 0.000981591798850842 -0.04216216323048037 0 0 0 0
159000000 0.008443490851805246 0.0357609326177949 -0.0010713894819656426 -0.0420957365592762 0 0 0 0
160000000 0.008811877983952375 0.0348921749753763 -0.0032643306593297325 -0.04192508425312047 0 0 0 0
161000000 0.009342083038953182 0.03601404763761239 -0.005344958343152998 -0.04159691206136901 0 0 0 0
162000000 0.009049227103151728 0.03627108731602896 -0.007443278607524453 -0.041484654636283806 0 0 0 0
163000000 0.009206853240596996 0.03710437365702891 -0.00955271831322872 -0.04065927684570943 0 0 0 0
164000000 0.009474580522837372 0.03628136630633741 -0.011569587556286776 -0.040279756332829604 0 0 0 0
165000000 0.009147816888384409 0.03755965111149077 -0.013556786026642917 -0.03946864954576622 0 0 0 0
166000000 0.009729850099187084 0.037199532005221816 -0.01559302711765886 -0.03848680093589963 0 0 0 0
167000000 0.009779061068598438 0.037480029262607184 -0.01742240103764868 -0.03760904112729079 0 0 0 0
168000000 0.010454650161776127 0.038020812836773304 -0.019258144418970113 -0.03653096149739712 0 0 0 0
169000000 0.009634449675345814 0.037555069122746226 -0.021173902948313787 -0.03535795651371356 0 0 0 0
170000000 0.009432877768252383 0.037974733446313885 -0.022662985947630294 -0.0342066738368732 0 0 0 0
171000000 0.00906848639568333 0.03794068774431636 -0.02466080089262193 -0.0329080791897787 0 0 0 0
172000000 0.009854671386986438 0.03930453896891228 -0.025959644483340663 -0.03161143316582425 0 0 0 0
173000000 0.009633473817740558 0.037622295910373776 -0.02772341195626401 -0.030068199049778574 0 0 0 0
174000000 0.010391918810000218 0.038366220821566384 -0.028950015021885146 -0.028397354593782106 0 0 0 0
175000000 0.00931805204381162 0.03962788704247557 -0.030495894634979086 -0.026645641072717663 0 0 0 0
176000000 0.00964246433123558 0.03955906447242456 -0.03171047904368746 -0.025328103062481722 0 0 0 0
177000000 0.009494393268361698 0.039943991438313016 -0.03284322919888953 -0.02362292258249577 0 0 0 0
178000000 0.010315425134522042 0.03913048476662542 -0.033953670078182396 -0.02187043261919583 0 0 0 0
179000000 0.01010275088078942 0.03954592651960671 -0.03483577419949529 -0.019924613897601598 0 0 0 0
180000000 0.009848867164790234 0.03977842392525532 -0.035875379650417566 -0.018082681025448924 0 0 0 0
181000000 0.010382444640400135 0.04002843423557474 -0.03661762557506023 -0.01620794764180586 0 0 0 0
182000000 0.010867692755995407 0.040619706015886006 -0.03718639592792674 -0.014410846943383895 0 0 0 0
183000000 0.010743426886224238 0.0415258063293594 -0.03779596732041934 -0.01224850135780532 0 0 0 0
184000000 0.009832081170003549 0.04140269323778179 -0.03821722107258762 -0.010347582710493514 0 0 0 0
185000000 0.010556401102522622 0.04071762400815745 -0.03866536788036536 -0.008390279124565607 0 0 0 0
186000000 0.010885179301926163 0.04126735424939074 -0.03891688414922915 -0.00643645774938787 0 0 0 0
187000000 0.010177133196109167 0.04147362228066264 -0.03892333783094651 -0.00410564403472531 0 0 0 0
188000000 0.011015490594674037 0.04113258901391167 -0.039019016558936935 -0.0022138924462427215 0 0 0 0
189000000 0.010349370556400067 0.04281606624880447 -0.03907408400271355 -0.0001822087659565192 0 0 0 0
190000000 0.010772712097913098 0.04173323789502043 -0.03888106750631208 0.0016185156279766993 0 0 0 0
191000000 0.01025265720934126 0.04178313307183214 -0.038465006587056705 0.0038880252629480802 0 0 0 0
192000000 0.011486957540673179 0.04283156887119305 -0.03810806296611417 0.00579270118208723 0 0 0 0
193000000 0.011214116244656895 0.0427606505535652 -0.037713242132319164 0.007647480039133242 0 0 0 0
194000000 0.011175017807364691 0.04262525282830109 -0.03724655613536143 0.009622217152106644 0 0 0 0
195000000 0.010608185865991627 0.043068619681717504 -0.036383226869224884 0.011526482881674908 0 0 0 0
196000000 0.011294452190346195 0.043035065728721615 -0.03582399293888689 0.01329304340356806 0 0 0 0
