# HZ S RI R 50
1000000 -0.0006582475880037099 1.7689751091829265e-05 0.046213354844697026 -0.00321270247233982 0 0 0 0
2000000 -0.0005532493842547799 0.0001088796309426354 0.047593212021651184 -0.004358764261018837 0 0 0 0
3000000 -0.0005671604454245173 0.0006862146115868434 0.047386648145132944 -0.006775700936626731 0 0 0 0
4000000 -0.00042761654225994443 0.0011057418775044553 0.046990691712016065 -0.009235293535437184 0 0 0 0
5000000 -6.967330767031272e-05 0.0015515572457581006 0.046352182321238056 -0.011446709434005517 0 0 0 0
6000000 -7.004667178524864e-05 0.001872093539847266 0.045536776307844036 -0.013638902211538443 0 0 0 0
7000000 4.503827478113224e-05 0.0017458762907437639 0.044715227490925526 -0.015693861288978542 0 0 0 0
8000000 0.0001761197443656049 0.002383088779850092 0.043940268820419036 -0.01775832868596092 0 0 0 0
9000000 2.088678483410006e-05 0.002352231672195625 0.04298838352645321 -0.019722418812161288 0 0 0 0
10000000 -9.06418142787392e-05 0.0025236216263637514 0.04205979716528367 -0.02175691458910294 0 0 0 0
11000000 5.899044238168711e-05 0.0026174009695879613 0.040949989123897565 -0.02358047130161143 0 0 0 0
12000000 0.00015434663232087733 0.0033514514426019474 0.03983538412777156 -0.02556946538720024 0 0 0 0
13000000 2.351814737555897e-05 0.0033988536457175093 0.03869140446395553 -0.0273704763959512 0 0 0 0
14000000 0.0001215367084314887 0.002973400249681696 0.0373318997018514 -0.02930469412151966 0 0 0 0
15000000 0.0009403473825716533 0.00350558100219507 0.035853675441521786 -0.03088016360234875 0 0 0 0
16000000 0.00055938306921628 0.003810079855602973 0.034430167009366595 -0.0326969328417256 0 0 0 0
17000000 0.0004469097734543204 0.004593620412290469 0.03284734473907663 -0.034254250892389884 0 0 0 0
18000000 0.0008646811994265234 0.003899057131115133 0.031206658842179016 -0.03583409743647361 0 0 0 0
19000000 0.0008765376620661393 0.004659588859816052 0.02942748493744298 -0.037265665670258734 0 0 0 0
20000000 0.0007240154524890426 0.0049503330493730876 0.027663799224685055 -0.038719390326768494 0 0 0 0
21000000 0.0008731136338414597 0.004885116748417279 0.025670189544574538 -0.03998100166511786 0 0 0 0
22000000 0.0009705068366752958 0.0048577066489623065 0.023739725395885185 -0.041158625926414664 0 0 0 0
23000000 0.0007844083025451468 0.005638039669230458 0.021709177817927364 -0.04226655732903333 0 0 0 0
24000000 0.0010623472409540368 0.00541099656722044 0.019644649364339073 -0.04331527462413885 0 0 0 0
25000000 0.0007883900121357799 0.005562064102649492 0.017543620728109412 -0.04412700079894312 0 0 0 0
26000000 0.0010367922445710625 0.006115096115074384 0.01536292740671863 -0.044935278119603725 0 0 0 0
27000000 0.0009319600317472191 0.006433546865355957 0.013187088320776039 -0.04563312666561333 0 0 0 0
28000000 0.0011957295763249814 0.006597726928249419 0.010905333140206131 -0.04612820609305478 0 0 0 0
29000000 0.0012107679903632384 0.006720567148805384 0.008714159396894927 -0.04670153148587657 0 0 0 0
30000000 0.0013828888648371091 0.006890693171429745 0.006362278782551512 -0.047017331272426285 0 0 0 0
31000000 0.0013442881037034197 0.00724807846802228 0.004219048653932302 -0.047292738056168536 0 0 0 0
32000000 0.00140426155529719 0.0071804325368528266 0.0018952133514881018 -0.04732354773451612 0 0 0 0
33000000 0.0011693382184339162 0.007464477020425933 -0.0003911186816291426 -0.047371792140104604 0 0 0 0
34000000 0.0012387023267630914 0.00782002783212692 -0.002604136275971341 -0.04729556796646088 0 0 0 0
35000000 0.0015790853859467015 0.008170330236903557 -0.004925768680889684 -0.04704238668179469 0 0 0 0
36000000 0.0017520668279427803 0.008023830431763931 -0.00721967608003879 -0.04679201331676883 0 0 0 0
37000000 0.0016090959188181369 0.008169597757428313 -0.009434673244100463 -0.04636022662063413 0 0 0 0
38000000 0.0018420898046494485 0.008523037060545417 -0.011630873589305273 -0.04578061734609026 0 0 0 0
39000000 0.001494823186926552 0.008628424936861263 -0.013874624210328838 -0.0450991067260768 0 0 0 0
40000000 0.0018423054083734419 0.009139404135286279 -0.016008460850453488 -0.04441682750779087 0 0 0 0
41000000 0.0019194011831747014 0.009002376191684359 -0.01806121129405135 -0.04355310876082534 0 0 0 0
42000000 0.0019732380907314623 0.00943793537599224 -0.02021374565739602 -0.042681320000486044 0 0 0 0
43000000 0.0019392076228621877 0.009505082801383671 -0.022168659231930895 -0.04150645363479351 0 0 0 0
44000000 0.0015448440175215375 0.009829931453285631 -0.02407823392246852 -0.040498306648081066 0 0 0 0
45000000 0.002187753155054949 0.009763755794482503 -0.0260171068388421 -0.03928374866743259 0 0 0 0
46000000 0.002168455878506339 0.009838880808938522 -0.027845240468017573 -0.03794134677259324 0 0 0 0
47000000 0.0026444714600468247 0.010143461221104606 -0.02958769631741568 -0.03655462550979804 0 0 0 0
48000000 0.0027200017503532016 0.010635229729710625 -0.031260192579300225 -0.03513059559113494 0 0 0 0
49000000 0.0025427105257104583 0.010590968302938465 -0.03292232145512381 -0.0335918737702576 0 0 0 0
50000000 0.002564415480156361 0.011095292588169846 -0.034453830589864815 -0.031936186635995005 0 0 0 0
51000000 0.002850716131306698 0.011767339409687562 -0.03588285083739992 -0.03015473256115256 0 0 0 0
52000000 0.0026837043700404066 0.01082948382281405 -0.03735451093440097 -0.02853759096894964 0 0 0 0
53000000 0.0026636506164831085 0.012223828420805848 -0.038586966845338515 -0.026640648987814958 0 0 0 0
54000000 0.0028275940547884465 0.011220819440430506 -0.03983607433882824 -0.024829528865391946 0 0 0 0
55000000 0.002951703071262614 0.01194245789925185 -0.04093215117272933 -0.022860663806828434 0 0 0 0
56000000 0.003244814410096606 0.01274236447420105 -0.041966828362192454 -0.0209109223821248 0 0 0 0
57000000 0.003158812120854152 0.01253289575865003 -0.04280624075054621 -0.01883422472001373 0 0 0 0
58000000 0.003094322467830495 0.012776798683129474 -0.0436960880176919 -0.01674548829625257 0 0 0 0
59000000 0.002749399501814951 0.012979532602814712 -0.04445911066942262 -0.014664586589350945 0 0 0 0
60000000 0.0035387554699822226 0.01340917478038777 -0.045055630486485934 -0.012639692955301223 0 0 0 0
61000000 0.0035496010401188573 0.013185506178091196 -0.04559678821598427 -0.010310487259016326 0 0 0 0
62000000 0.0034899535394062146 0.013896643348112497 -0.04594877926703017 -0.008230814878391222 0 0 0 0
63000000 0.003435007877026031 0.013753598121281706 -0.04637606417578604 -0.0059429039107716875 0 0 0 0
64000000 0.0035842823832542715 0.013992592694931775 -0.04647895458021813 -0.0037434867484255137 0 0 0 0
65000000 0.0037270537695558133 0.01401889689393611 -0.04661783242725357 -0.001584257791468187 0 0 0 0
66000000 0.0037776145747058436 0.014862131044387387 -0.046712542591720294 0.0006081664491613156 0 0 0 0
67000000 0.0040520034447712825 0.014891556819257775 -0.04649202604435449 0.002884057132276238 0 0 0 0
68000000 0.003952912519971833 0.015010959467199195 -0.04626083519358141 0.004984655391401325 0 0 0 0
69000000 0.004277022085341574 0.015170983304141778 -0.04601878610824113 0.007215125070512874 0 0 0 0
70000000 0.004039565922247651 0.015239599183142629 -0.04554575016064622 0.009416624768023504 0 0 0 0
71000000 0.0036815652757728116 0.015427367622629275 -0.04500980463702349 0.011549641669571536 0 0 0 0
72000000 0.0039038721014689687 0.015670176828622942 -0.04453055226921609 0.013631492858984486 0 0 0 0
73000000 0.00421595061112622 0.01642630907678034 -0.04388149825238607 0.015696844406871253 0 0 0 0
74000000 0.004415992686943531 0.015388435787766342 -0.04285848687325976 0.017821143896769327 0 0 0 0
75000000 0.004499549528785522 0.015982856926334454 -0.042029650197275774 0.01980430606071079 0 0 0 0
76000000 0.004302600058128734 0.016199346398477723 -0.04107834142039358 0.021876624411774022 0 0 0 0
77000000 0.0042619652366921645 0.016781812513018107 -0.03993250221383556 0.023811667838342907 0 0 0 0
78000000 0.004738824347815809 0.016917653006338212 -0.03878817516535151 0.025571502130005096 0 0 0 0
79000000 0.0047244789215145 0.01691261934502467 -0.03748936820667596 0.027443919443528038 0 0 0 0
80000000 0.005436882738719832 0.0174730296379972 -0.036125221102021494 0.02922676856225952 0 0 0 0
81000000 0.004970213588159068 0.01741435542991521 -0.03475750141796987 0.030908548805597597 0 0 0 0
82000000 0.005446570078809087 0.017822995450056445 -0.03331272664331589 0.03253743378851234 0 0 0 0
83000000 0.005603186916123788 0.017959847373507115 -0.03170022898563391 0.03401882177189267 0 0 0 0
84000000 0.00485287741983351 0.01820631147328634 -0.02998918689558854 0.035552446840621386 0 0 0 0
85000000 0.005432347383317901 0.018423625325147536 -0.02827049424352971 0.036898570119763524 0 0 0 0
86000000 0.005717531270688925 0.019406749509967947 -0.026586519849448726 0.03823843796310394 0 0 0 0
87000000 0.006001259542982273 0.019610509154620738 -0.024755794198582787 0.039516953664574854 0 0 0 0
88000000 0.005750301749915243 0.019388189480920463 -0.02290329511102131 0.04056151314390371 0 0 0 0
89000000 0.005951871496508272 0.019169313562330013 -0.02097681272400633 0.0416322364124658 0 0 0 0
90000000 0.006091982942956136 0.019805908494356095 -0.019018550013239086 0.042572292011038626 0 0 0 0
91000000 0.006147773534039445 0.01977085946079902 -0.017033258556702433 0.04346944177330689 0 0 0 0
92000000 0.006518350930008574 0.02007495063242175 -0.01495335484828493 0.044266038002759266 0 0 0 0
93000000 0.006068913485988677 0.02081085226462513 -0.012923157347061493 0.04499069739549346 0 0 0 0
94000000 0.006503110269098142 0.02096977323814132 -0.010774901212961374 0.045589044994353074 0 0 0 0
95000000 0.006279856567134653 0.02141509783604914 -0.00863866455362574 0.046006300616028555 0 0 0 0
96000000 0.006584838004977874 0.021493580815306588 -0.006550077022433308 0.04645043254722629 0 0 0 0
97000000 0.007023822954824015 0.022098776388751715 -0.004285995494881979 0.046648033940888026 0 0 0 0
98000000 0.006364166728317972 0.021080799987941795 -0.0021060095056868963 0.04685375087005138 0 0 0 0
99000000 0.006598932631149522 0.022359387302663312 9.763774410055198e-05 0.04694437831667326 0 0 0 0
100000000 0.006692778630542356 0.021807465962098115 0.0024225098494283135 0.04689452452886589 0 0 0 0
101000000 0.006833439702232967 0.02230656656794661 0.004614026831228194 0.04671240957002092 0 0 0 0
102000000 0.007176948860841417 0.02267569397032108 0.006980533509456262 0.046597362876051894 0 0 0 0
103000000 0.006633377340198229 0.02303404749019335 0.009204006179041418 0.04629696923131762 0 0 0 0
104000000 0.007313913345811706 0.022895560207966143 0.011436903904905569 0.04590667987304109 0 0 0 0
105000000 0.006862204079148368 0.023026909038858328 0.013565408767040297 0.04533724426067264 0 0 0 0
106000000 0.007157636290174203 0.023447306080996315 0.0156993168129892 0.044585492855187016 0 0 0 0
107000000 0.006944746846081593 0.02353774119991008 0.01791534618057738 0.043811346675477016 0 0 0 0
108000000 0.006806187572552096 0.023757172539551823 0.019921761922558623 0.042974340666829654 0 0 0 0
109000000 0.007063022041889948 0.02445482675439718 0.02195846971417298 0.04193028629121591 0 0 0 0
110000000 0.007030317915166371 0.024655414170536228 0.024028988403228996 0.040921147189584096 0 0 0 0
111000000 0.007403689998306514 0.024874058949820164 0.025882253144281962 0.039818815692382714 0 0 0 0
112000000 0.007505030145380023 0.024765177729981235 0.027831016617891946 0.038580558574646116 0 0 0 0
113000000 0.007638993984183655 0.02515399793706878 0.029738054999949342 0.037210086288729335 0 0 0 0
114000000 0.007643553449277823 0.025435021319497136 0.03139625353818421 0.03575433901016177 0 0 0 0
115000000 0.00774560454493535 0.025889912342052193 0.03321828757728593 0.034293365220343944 0 0 0 0
116000000 0.007614453723324913 0.026139261907317284 0.03484002749824018 0.03266641995245961 0 0 0 0
117000000 0.007694436826642879 0.025755525977787387 0.03641519275426085 0.030878116777665873 0 0 0 0
118000000 0.007528319624784652 0.026230018293516587 0.03798870554428896 0.02917962520996239 0 0 0 0
119000000 0.007845529350821985 0.026943777404655093 0.03929072434902642 0.02746261147159825 0 0 0 0
120000000 0.008056557441336827 0.027121193290376915 0.04064716379184206 0.025540163429710307 0 0 0 0
121000000 0.007704655963144591 0.02730578837012493 0.04196216282947906 0.023583364733688394 0 0 0 0
122000000 0.008048827314621256 0.02723245208103805 0.04318125044897387 0.021510503699846736 0 0 0 0
123000000 0.008230567578531169 0.02742146125936058 0.04415687162866034 0.019451687710328524 0 0 0 0
124000000 0.008508325609605542 0.02771392436880958 0.04515764128120992 0.017309807644499537 0 0 0 0
125000000 0.008104311059416239 0.028237072367932325 0.04599727391446892 0.01507229866947677 0 0 0 0
126000000 0.008042143176205304 0.02820237505643851 0.046827590471784905 0.01287049441613161 0 0 0 0
127000000 0.0078721771611106 0.028652359995682622 0.04744459099482856 0.010549890145153736 0 0 0 0
128000000 0.00823094132329328 0.028485239796487014 0.04799336603604337 0.008348573595924428 0 0 0 0
129000000 0.008429902910167656 0.029181024432809836 0.048390920374202666 0.006002217150369651 0 0 0 0
130000000 0.008250454654487692 0.029443658883204056 0.04876559340147911 0.0035796084229971674 0 0 0 0
131000000 0.008059681752866475 0.029402338461226533 0.048900526008914084 0.001088896284330454 0 0 0 0
132000000 0.008131296242856259 0.029365267725213216 0.048938988881205576 -0.0011982988328055715 0 0 0 0
133000000 0.00887659960042004 0.02956775282676865 0.04895574471552971 -0.003714311174745323 0 0 0 0
134000000 0.008725078076668637 0.030501485919744865 0.04881576520323059 -0.0060106801223912595 0 0 0 0
135000000 0.008313305821793012 0.030870439696733445 0.04850118577827262 -0.00846941007626471 0 0 0 0
136000000 0.008617280127781379 0.030931710363219834 0.04810244641355761 -0.010865203058342867 0 0 0 0
137000000 0.008446221851814819 0.030522192142055003 0.04755613425541701 -0.013309972593636862 0 0 0 0
138000000 0.00908122489888343 0.03087915734964951 0.046906105392385426 -0.015632681609284417 0 0 0 0
139000000 0.009277500778331754 0.03125706348680599 0.046177846174471494 -0.017949788657738826 0 0 0 0
140000000 0.00854958409878532 0.031432141056377955 0.045280859432666826 -0.020220717140440856 0 0 0 0
141000000 0.008536943812481169 0.03173642597922453 0.04420965770763884 -0.022519634753505897 0 0 0 0
142000000 0.00842105878683445 0.03135594860734898 0.04307273566818301 -0.024680464771695162 0 0 0 0
143000000 0.008894241022012998 0.03274961509507427 0.041768075736048786 -0.02683276607713365 0 0 0 0
144000000 0.009358936654077828 0.030959957577916954 0.04060099479970049 -0.028957863820722324 0 0 0 0
145000000 0.008125193957051986 0.032725213242496685 0.03918749274886499 -0.03122540561647585 0 0 0 0
146000000 0.008343312076351174 0.03202680465606471 0.037444156815651226 -0.03289333141325785 0 0 0 0
147000000 0.008164106504876529 0.03303847312038569 0.035892703128495365 -0.03504024862621038 0 0 0 0
148000000 0.008401870269589546 0.03300762122721396 0.03428194206373563 -0.03664790420531176 0 0 0 0
149000000 0.009027035666246453 0.033506096056267205 0.03239308282966575 -0.038505476074126826 0 0 0 0
150000000 0.008568888008122453 0.033702982609248616 0.030491768580886636 -0.040139509806692376 0 0 0 0
151000000 0.008834704517985799 0.03386183093462131 0.028354195445743816 -0.041690803230913905 0 0 0 0
152000000 0.008737938039579219 0.03504485177672953 0.026199841325427423 -0.043138668789063264 0 0 0 0
153000000 0.008525643921730407 0.03324086873294197 0.02414045907897273 -0.04434070202647144 0 0 0 0
154000000 0.00871676470327792 0.03448625144367039 0.02187324551119588 -0.045453214945280596 0 0 0 0
155000000 0.008836313014159951 0.03508386670891375 0.01964334732441413 -0.04687228147378327 0 0 0 0
156000000 0.008802855564579161 0.035179165555119865 0.017082907664563413 -0.047665953283319414 0 0 0 0
157000000 0.009845199428975554 0.03534888696926785 0.014808550538057299 -0.04863439441513922 0 0 0 0
158000000 0.009460728456691719 0.03466424671131494 0.012302330533812461 -0.049309293164848327 0 0 0 0
159000000 0.008994430496149272 0.03601327231270211 0.009852910218045324 -0.049820792789915185 0 0 0 0
160000000 0.009184290477673305 0.03500191579081711 0.007304342023601848 -0.05041415150451903 0 0 0 0
161000000 0.01011414382607363 0.0356859872180791 0.004531491207977508 -0.050617198142093846 0 0 0 0
162000000 0.0093903758430897 0.03569813442353563 0.0019216024280725615 -0.051132122659820964 0 0 0 0
163000000 0.009218387386792452 0.0363545101165065 -0.0007371787762845486 -0.051025064197798155 0 0 0 0
164000000 0.009646719309134959 0.03616997254569587 -0.0031184296865941112 -0.05124166671577368 0 0 0 0
165000000 0.009872915470473514 0.0364131401892938 -0.005785156055485825 -0.05090298262213026 0 0 0 0
166000000 0.009934386093278324 0.03704632524285032 -0.008533794275835664 -0.050281826454387266 0 0 0 0
167000000 0.009961100305199705 0.03715714974169824 -0.010984315027514225 -0.05002495554211151 0 0 0 0
168000000 0.011194306003984213 0.0374753644872503 -0.013668708196480013 -0.04960338974742544 0 0 0 0
169000000 0.01023633792070421 0.03694111312429507 -0.016049208291466607 -0.04867812442808331 0 0 0 0
170000000 0.010259321810398521 0.037172575879950556 -0.018444731057887156 -0.04768794401804687 0 0 0 0
171000000 0.009605057470402599 0.03739688180791208 -0.021232477468640664 -0.04693036691765973 0 0 0 0
172000000 0.010270776198061127 0.03918134240187161 -0.023438539600329156 -0.04583583412557678 0 0 0 0
173000000 0.009634014756472188 0.03814782229985266 -0.02578737322487732 -0.04460687334205029 0 0 0 0
174000000 0.010397245690067827 0.038528922053155036 -0.028051481560947104 -0.04309012166706595 0 0 0 0
175000000 0.00963506104198609 0.03870529822044199 -0.030607993883946014 -0.041708786913897816 0 0 0 0
176000000 0.010291410919356503 0.03917238357119364 -0.03254256968415112 -0.04008839856807989 0 0 0 0
177000000 0.009960042367693487 0.039367958375443574 -0.03465145370589439 -0.038409686486268704 0 0 0 0
178000000 0.010423980025759536 0.03938390497452811 -0.03658443811588404 -0.03635685652001372 0 0 0 0
179000000 0.010055399008701602 0.03870181251988191 -0.03860942759235904 -0.03460149381986298 0 0 0 0
180000000 0.009970503690284498 0.03960785095884019 -0.040389745765504984 -0.03252765265070809 0 0 0 0
181000000 0.010898605083647669 0.039376691199039464 -0.041889499077341234 -0.030261573008635228 0 0 0 0
182000000 0.010722585867996333 0.040592173773990756 -0.04346042032890066 -0.02812086746036495 0 0 0 0
183000000 0.010579529744860174 0.0408813083528626 -0.0449816536477026 -0.025780777199706055 0 0 0 0
184000000 0.01028797117145024 0.040173388444384936 -0.046225173138991243 -0.023357949272926868 0 0 0 0
185000000 0.010395351684598712 0.040083851812416894 -0.04740104326784731 -0.021010060400539182 0 0 0 0
186000000 0.010922719744893769 0.040665537369245566 -0.04856282088264846 -0.018402963634034222 0 0 0 0
187000000 0.010462083853853414 0.04097630248554646 -0.04948761594273058 -0.0157971229531735 0 0 0 0
188000000 0.010943924990911656 0.04097374452763056 -0.05014888796929518 -0.01319483874220654 0 0 0 0
189000000 0.010656627655851058 0.041812568291020126 -0.05087887503490355 -0.010292128962813273 0 0 0 0
190000000 0.011443798058565685 0.041363671165672855 -0.05143124070780116 -0.007908646393873233 0 0 0 0
191000000 0.010324859497724336 0.04156475948247929 -0.05170233066808302 -0.005148109487168286 0 0 0 0
192000000 0.012536306430173285 0.042090648076713505 -0.05192446861054941 -0.002276108172357667 0 0 0 0
193000000 0.011225035232553743 0.042515853816501754 -0.05207198076048608 0.00046069009214923603 0 0 0 0
194000000 0.011299872981403041 0.04181757392532176 -0.05195212180555655 0.0031774180919354124 0 0 0 0
195000000 0.010826104915893702 0.042364209300276436 -0.05150564028569166 0.0060531816343020895 0 0 0 0
196000000 0.011655984635449704 0.04211333266231107 -0.051244175659517444 0.008813819036508495 0 0 0 0
