# HZ S RI R 50
1000000 -0.0009088980198906088 -0.0001556730722867198 0.046157652244170955 -0.003734381175193786 0 0 0 0
2000000 -3.120848722949621e-05 -7.537071840382694e-06 0.04755623309063743 -0.005075339979675213 0 0 0 0
3000000 -0.0004739113826582103 0.0008737234148451929 0.047241452496274226 -0.007935757402650538 0 0 0 0
4000000 -0.00015334025030587116 0.0008784188033941018 0.0466840110841369 -0.010693675257581185 0 0 0 0
5000000 -0.00022201649016492832 0.0012432225175810201 0.04586530113465358 -0.013222113646632064 0 0 0 0
6000000 6.576700820853073e-05 0.0020545354101957685 0.044840377905244484 -0.01580419111236624 0 0 0 0
7000000 -5.114727814314064e-05 0.001967188897514037 0.04379769677012302 -0.018164832549856295 0 0 0 0
8000000 0.0003628635153964413 0.002585032699317139 0.04264130557690376 -0.020441838271779526 0 0 0 0
9000000 0.00020203463193032165 0.002017356446626239 0.04137702395060801 -0.02263897483978327 0 0 0 0
10000000 1.6211126190347818e-05 0.0027706242408291285 0.04005950616158995 -0.024783159271606462 0 0 0 0
11000000 -1.8961198819945744e-05 0.0032385037591024695 0.038664851111074615 -0.026908220093067474 0 0 0 0
12000000 0.0006574269602874754 0.0032637604801406487 0.037090544493738324 -0.02896979640382945 0 0 0 0
13000000 6.863917191189567e-05 0.0035107592503018244 0.03557471650796336 -0.030940555632933332 0 0 0 0
14000000 0.0005525379420894189 0.0036888841314651104 0.03376546063842673 -0.03287138368585536 0 0 0 0
15000000 0.0005299310785022197 0.003317220391290017 0.031840249412575544 -0.03459223866324035 0 0 0 0
16000000 0.0004731073710848857 0.0033501525449175017 0.029890631779667626 -0.03632739141564097 0 0 0 0
17000000 0.00042719477878408447 0.0048451040819018016 0.027819216969059386 -0.03786576667327024 0 0 0 0
18000000 0.0006563107523397927 0.004213739518566647 0.025651152585567893 -0.03933159535982114 0 0 0 0
19000000 0.0005025113959366026 0.00473117052042332 0.02332432875611134 -0.04064407436950528 0 0 0 0
20000000 0.0007764881991696717 0.0047743815515533285 0.021069279034233113 -0.041891316786738055 0 0 0 0
21000000 0.0006323207247111377 0.004849108679544788 0.018690123132334684 -0.04292888719126166 0 0 0 0
22000000 0.0008564657022307214 0.004878728244449473 0.016181260126646984 -0.04376552136953406 0 0 0 0
23000000 0.0009038843944527285 0.00554036773293502 0.013746915641388658 -0.044582361314753766 0 0 0 0
24000000 0.0006109033822702454 0.00620823774129024 0.011194171879741827 -0.04513759677232279 0 0 0 0
25000000 0.0006283686700294561 0.006198102438472857 0.008627032318446862 -0.045678748093888936 0 0 0 0
26000000 0.0015264790887287631 0.0063442846807886515 0.0060837124515474615 -0.04599115314487595 0 0 0 0
27000000 0.0008356219675007313 0.005893678010371424 0.00349670993274619 -0.04619695110901696 0 0 0 0
28000000 0.001269842884479781 0.006316491728642288 0.0009189638875592106 -0.046231166597666566 0 0 0 0
29000000 0.0008979684389201628 0.006957513412771918 -0.0016341541935175335 -0.04604936560758985 0 0 0 0
30000000 0.0016122025020286158 0.0070863367507024095 -0.004248010367246053 -0.04578064772880603 0 0 0 0
31000000 0.0009458915560515208 0.00735800138415269 -0.0066809549710822105 -0.045411360119530904 0 0 0 0
32000000 0.0012177778935726195 0.007568934101523724 -0.009211006093447067 -0.04479848093644314 0 0 0 0
33000000 0.0011661070729454264 0.007593016397345869 -0.011556015159556798 -0.044066670288499275 0 0 0 0
34000000 0.001271444106014781 0.008252458223740412 -0.013972957283834972 -0.04334507896222089 0 0 0 0
35000000 0.0013043636351782065 0.008062106120231618 -0.016280000308039364 -0.04229247890364011 0 0 0 0
36000000 0.0018482101090162783 0.00845112612619362 -0.018600393810729626 -0.04126997209094825 0 0 0 0
37000000 0.001477757631243851 0.008128718769783508 -0.02072164937348403 -0.040102671460709796 0 0 0 0
38000000 0.0017240809367232884 0.00858331564328854 -0.022863808136292622 -0.03873779701832541 0 0 0 0
39000000 0.0010948540510724288 0.008736260660798011 -0.024887929074575255 -0.03729413386717738 0 0 0 0
40000000 0.0018531888406240617 0.009065219914312646 -0.026830831288930435 -0.0357008231750592 0 0 0 0
41000000 0.0021037943807859006 0.009040785938806375 -0.02864136601311735 -0.034193678163456566 0 0 0 0
42000000 0.0018357270097959226 0.009997503298170833 -0.030487747679933667 -0.03241131501405115 0 0 0 0
43000000 0.001433718247481214 0.009354006342843101 -0.031969782813601105 -0.030569706105925167 0 0 0 0
44000000 0.0015822655057435159 0.010371338762989776 -0.033470779009249045 -0.028775667955082497 0 0 0 0
45000000 0.0016685075354876285 0.010018959936453594 -0.03491359315245243 -0.026695647338791043 0 0 0 0
46000000 0.0016925959733737456 0.010014146875845373 -0.0362492115517692 -0.024713085150722208 0 0 0 0
47000000 0.002785418622991655 0.01029715585957035 -0.03735896850687983 -0.02267746734981211 0 0 0 0
48000000 0.0026784413094456936 0.01063645425511065 -0.03836397738836468 -0.020504499808914414 0 0 0 0
49000000 0.0019389125665413931 0.010900144079251627 -0.03935146869651739 -0.018381934391253435 0 0 0 0
50000000 0.0022048585490887515 0.011413063469840952 -0.040140818864095665 -0.01612822088160726 0 0 0 0
51000000 0.0022969927724091387 0.011934016485462898 -0.04078192990093991 -0.01383319062365888 0 0 0 0
52000000 0.002251012625247523 0.011366367623413988 -0.0414017043547785 -0.011646156953091848 0 0 0 0
53000000 0.00229843362233352 0.01226757751014514 -0.04168820334685936 -0.009293727669981615 0 0 0 0
54000000 0.0025889644585582977 0.011886857388632628 -0.04216191019133792 -0.0070684458825688735 0 0 0 0
55000000 0.0025409587105245414 0.012488866680357253 -0.042239569600500126 -0.0046856636550162 0 0 0 0
56000000 0.002764358038527551 0.012978677231621815 -0.04224607664500363 -0.0023730802950076126 0 0 0 0
57000000 0.0029025986812888276 0.01330910647126671 -0.04212754968859363 -0.00011825776290578931 0 0 0 0
58000000 0.0031995386670870484 0.013303682344394557 -0.04184346170285407 0.002208984891444899 0 0 0 0
59000000 0.0030373553978180023 0.013325514951665443 -0.041578296091920465 0.004426116091844945 0 0 0 0
60000000 0.0027672976251766684 0.013662914986269635 -0.041082553181353246 0.006518379958796467 0 0 0 0
61000000 0.003423264138945118 0.013991990680401 -0.04057990499433878 0.008830386829575296 0 0 0 0
62000000 0.002789849936431758 0.013700938020478566 -0.0398336124395029 0.010873417317728732 0 0 0 0
63000000 0.0033755083397607635 0.014628677833558998 -0.039107909938736904 0.013036778767196331 0 0 0 0
64000000 0.002796309512091557 0.014704651362692127 -0.038077553173250636 0.014923651546731363 0 0 0 0
65000000 0.0030743216486186233 0.015022778247248158 -0.03714717164167105 0.01687307060670943 0 0 0 0
66000000 0.003309763966354719 0.01476145422192704 -0.0360860925843931 0.01883732800809005 0 0 0 0
67000000 0.0031077893192096233 0.015564911793214018 -0.03481242898160225 0.02059150206886191 0 0 0 0
68000000 0.003360033115139306 0.015220155982065617 -0.0334710513508279 0.02236987197233002 0 0 0 0
69000000 0.0038925866144878868 0.01563329319749088 -0.03212646351886218 0.024098652460941613 0 0 0 0
70000000 0.0036622274185488892 0.01580724522335988 -0.030588131331075737 0.025696008495967128 0 0 0 0
71000000 0.003400223928213058 0.01594009858776209 -0.02907147676607481 0.02707361034139753 0 0 0 0
72000000 0.0035386164804671874 0.016389438242803835 -0.027483741198446973 0.028492986841902265 0 0 0 0
73000000 0.003945182482645183 0.016880298043066694 -0.02591283779279887 0.029833200381718057 0 0 0 0
74000000 0.003660119441065845 0.01606440490904063 -0.02409991101917413 0.03099855142807863 0 0 0 0
75000000 0.003735001190022085 0.016807305393884663 -0.022346087525167136 0.03210685789709061 0 0 0 0
76000000 0.003547710946259296 0.01699450445472655 -0.02048244825586838 0.03312657234249396 0 0 0 0
77000000 0.0033119201055301847 0.017552107118743977 -0.018580394291378297 0.03411926062119273 0 0 0 0
78000000 0.0037876184044490315 0.017643084397112773 -0.01669183605713242 0.03486545414839987 0 0 0 0
79000000 0.004352760492606915 0.01769982457195102 -0.014733204332745003 0.035533168630086966 0 0 0 0
80000000 0.0047816106083156335 0.01833077660355539 -0.012812974364018561 0.03615620456387019 0 0 0 0
81000000 0.004622609547393749 0.018227491070956295 -0.01083457081196326 0.03659346283195775 0 0 0 0
82000000 0.00478591675057428 0.018680473460479734 -0.008865626711679203 0.036976984690706725 0 0 0 0
83000000 0.005148725637239547 0.019163624186684092 -0.006860510152731298 0.03722244116742012 0 0 0 0
84000000 0.004768594276687779 0.018892692861978522 -0.004822992376041729 0.03742034460275674 0 0 0 0
85000000 0.005096864274569309 0.019327221130262116 -0.0028601453607082898 0.037446272045268854 0 0 0 0
86000000 0.004662972121829091 0.02008824088532769 -0.0008404098954461511 0.03739391232996667 0 0 0 0
87000000 0.004854169408823911 0.020752731479861425 0.0010601974460893006 0.03730797593325679 0 0 0 0
88000000 0.005126172383341352 0.01991925606010015 0.0029504570502796638 0.03695969666480992 0 0 0 0
89000000 0.0054696942931173696 0.02041782651993454 0.004912010790517396 0.036637569033964194 0 0 0 0
90000000 0.005537483230064688 0.02081420548694659 0.006774913225612392 0.03613421197675809 0 0 0 0
91000000 0.005633709060027056 0.02117616735316534 0.00862954243720112 0.0355399448053403 0 0 0 0
92000000 0.005586455908410668 0.021646329004059647 0.01041896026801974 0.03486306233494848 0 0 0 0
93000000 0.004937014373076898 0.022070004510776703 0.012125080395216785 0.03419772292522906 0 0 0 0
94000000 0.005353763646251659 0.02194890902656206 0.013810169676119978 0.03330169005589844 0 0 0 0
95000000 0.00537900074536995 0.022442263471601297 0.015483019882553083 0.03242346053390022 0 0 0 0
96000000 0.005802999468868121 0.022090319985387543 0.017009486408468697 0.03140614804365633 0 0 0 0
97000000 0.005813816122583483 0.02290834684424158 0.018593548658508496 0.030289271209872338 0 0 0 0
98000000 0.005673467579344965 0.022653353722914975 0.02009417574638888 0.029127388891818203 0 0 0 0
99000000 0.005744083699753935 0.023220823396269106 0.021457408507836093 0.027975633560205538 0 0 0 0
100000000 0.005433325646650604 0.022942187838234998 0.022887029604840278 0.026666701489708063 0 0 0 0
101000000 0.0057244155364260686 0.023084725417268213 0.024031367943330065 0.025254748187825363 0 0 0 0
102000000 0.006338117148426904 0.023733399412930047 0.025385309133189753 0.02386574312684042 0 0 0 0
103000000 0.005764144253546008 0.02461081603771458 0.026423014530463227 0.02245396178889917 0 0 0 0
104000000 0.006029896713515356 0.024069363366559 0.027549300472616573 0.020931416297039873 0 0 0 0
105000000 0.0057397010412733275 0.02458717199964292 0.02845184644972476 0.019319947968822988 0 0 0 0
106000000 0.006161382566617952 0.024580678128671762 0.02927411079999261 0.017644176679353172 0 0 0 0
107000000 0.006658396771675436 0.024912457349880197 0.030115958687622634 0.01607542154626082 0 0 0 0
108000000 0.006191235523426353 0.02507924955330025 0.030709717631431266 0.01438510632414064 0 0 0 0
109000000 0.006390502810364828 0.026281712476532375 0.031281512744599574 0.012647693338469483 0 0 0 0
110000000 0.006081088005112045 0.026097053597581816 0.03177572892899228 0.010862451268813685 0 0 0 0
111000000 0.006569260762276362 0.026382118568287895 0.03210168357739934 0.0092458353776277 0 0 0 0
112000000 0.006580550020143849 0.026811547876890038 0.032409118794159135 0.007509057962967685 0 0 0 0
113000000 0.006505245069511348 0.02655878554233448 0.0326550439035225 0.005802289790991516 0 0 0 0
114000000 0.006688045830287148 0.0273950887950264 0.032720498405877686 0.004047745083651816 0 0 0 0
115000000 0.00698637377818638 0.027893004853351878 0.032724254179080675 0.0023130258719574947 0 0 0 0
116000000 0.006776441852294563 0.02797605158624094 0.0326418321444559 0.0006841365267737272 0 0 0 0
117000000 0.006624524114826717 0.027675723166176995 0.03246536823157743 -0.0010936544352401223 0 0 0 0
118000000 0.007086498468898065 0.028181493093256474 0.03227286863144222 -0.002789727729385994 0 0 0 0
119000000 0.007458661915437709 0.0287336495264059 0.03184396208186722 -0.0044772033245810555 0 0 0 0
120000000 0.007262287836529226 0.028625695934940677 0.031488620688760655 -0.006034575130635846 0 0 0 0
121000000 0.007123263949644101 0.029364642207417867 0.030829998501474068 -0.007661308418973176 0 0 0 0
122000000 0.007081439781503608 0.029145623451368913 0.03037663908623371 -0.009157608440676205 0 0 0 0
123000000 0.007268728363912295 0.029261535693791807 0.02971183203640405 -0.01075480820975996 0 0 0 0
124000000 0.007444987080322995 0.029422260604660504 0.02894947521352303 -0.01225678616033553 0 0 0 0
125000000 0.007381721426984484 0.030313440808743607 0.02817068507964413 -0.013592120231457701 0 0 0 0
126000000 0.007447168510516161 0.030470234560998347 0.027208079964983745 -0.015007420097734911 0 0 0 0
127000000 0.00687389790991996 0.031120005347509874 0.02634303457573706 -0.016281197708698326 0 0 0 0
128000000 0.0074689211093678775 0.030518609524819745 0.02527589364718124 -0.017543475430221736 0 0 0 0
129000000 0.007846087824513669 0.031521315758893956 0.024269101341486052 -0.01873058705404983 0 0 0 0
130000000 0.0072175359213968015 0.031828282496350994 0.02305699388731708 -0.01987274513133336 0 0 0 0
131000000 0.007416783908718878 0.03195544072216442 0.021847757789038285 -0.021038410215606995 0 0 0 0
132000000 0.007750251133406337 0.03136930576091685 0.02067098035584646 -0.021915133736663754 0 0 0 0
133000000 0.00801751414875897 0.03160773854808329 0.01934795977537322 -0.022968648578967837 0 0 0 0
134000000 0.00868555990346058 0.032791146117813745 0.018009076501770988 -0.023749776175037367 0 0 0 0
135000000 0.00814370843114224 0.03345979783000979 0.01670596904767276 -0.024483445192169738 0 0 0 0
136000000 0.008108248596667084 0.032861085878412695 0.015301881480856408 -0.025236840116035737 0 0 0 0
137000000 0.007439368147498668 0.03314248427816449 0.01386380476306995 -0.025920523322300586 0 0 0 0
138000000 0.008423343463825202 0.03268027983447774 0.012369382760152656 -0.026454399244914044 0 0 0 0
139000000 0.00879462350822244 0.033326728072312135 0.011017784925263332 -0.026864277681335487 0 0 0 0
140000000 0.007921630373093076 0.03380290822255752 0.009472388025182032 -0.027180952775571112 0 0 0 0
141000000 0.008295945665983245 0.034339781225475555 0.007893053861760261 -0.027496629494767603 0 0 0 0
142000000 0.008071658356623063 0.03376434615021738 0.00652287448906933 -0.027739689285471405 0 0 0 0
143000000 0.009111298066597733 0.03535627716497499 0.004907535021557906 -0.027885375281241388 0 0 0 0
144000000 0.007800621589163867 0.03354751595103873 0.003576439331957077 -0.02799412337976782 0 0 0 0
145000000 0.007986554236070462 0.03512779713460283 0.0019470891100259865 -0.02806434314475758 0 0 0 0
146000000 0.008207123826110998 0.03503114113022129 0.0005805528648664102 -0.027829612803715466 0 0 0 0
147000000 0.007898784358625491 0.03603417206446369 -0.000865600550693038 -0.027719984540516922 0 0 0 0
148000000 0.008435684154520035 0.0359666300406738 -0.0024693454363696136 -0.027320641081332968 0 0 0 0
149000000 0.008449854552338812 0.03630149289274403 -0.0036988601914456115 -0.02722759919133594 0 0 0 0
150000000 0.008599342543861669 0.036946793727409076 -0.005019636697749089 -0.02682379889323058 0 0 0 0
151000000 0.009011344110748038 0.03656208053760647 -0.006470447768942616 -0.026270708627501894 0 0 0 0
152000000 0.009291834977443087 0.03669479754109809 -0.007906065566610774 -0.02558531286978827 0 0 0 0
153000000 0.008799146092667689 0.036444395316980835 -0.009097518822383925 -0.025130766795332035 0 0 0 0
154000000 0.008572495804904648 0.037841666465681295 -0.010293487488233506 -0.024293799350710514 0 0 0 0
155000000 0.008893550930575606 0.03715389746322495 -0.011439319971700123 -0.023718880640644226 0 0 0 0
156000000 0.008859466992912955 0.03829450184280409 -0.01259943649035413 -0.022888216383648977 0 0 0 0
157000000 0.009770939360773733 0.03871861946860023 -0.013636658390231407 -0.02206717742357356 0 0 0 0
158000000 0.009334958823803727 0.03781485908281532 -0.014849998414280231 -0.02121719214467649 0 0 0 0
159000000 0.00942949081122881 0.038526155014747376 -0.015916019912244003 -0.020287917599850023 0 0 0 0
160000000 0.009560775845392836 0.03815734031065272 -0.01664710091341215 -0.019162781614820195 0 0 0 0
161000000 0.009640608641144242 0.03855129577379426 -0.017475999205560346 -0.018123529116590868 0 0 0 0
162000000 0.009134576056516222 0.03916880268771239 -0.01849344811878453 -0.017220302995808096 0 0 0 0
163000000 0.009508352236541728 0.03941224435377165 -0.019008723679509128 -0.01602531917766997 0 0 0 0
164000000 0.009977170493691274 0.03953254007418233 -0.01964793560756886 -0.01516891174563206 0 0 0 0
165000000 0.010142722056506657 0.040226595935598713 -0.020349443950345596 -0.014108531831589659 0 0 0 0
166000000 0.010114442797159996 0.04019496306845567 -0.0209461576296011 -0.01272590805024053 0 0 0 0
167000000 0.010022009889059573 0.03996849108607323 -0.02127590411855727 -0.01146960130122535 0 0 0 0
168000000 0.011125260653832462 0.04027772365462885 -0.021864872466727237 -0.010533652615876497 0 0 0 0
169000000 0.009944189652666018 0.04031076770647025 -0.02208535027501535 -0.009151687804303602 0 0 0 0
170000000 0.010346607193348251 0.040873169797862915 -0.022223287206186982 -0.007825339244114311 0 0 0 0
171000000 0.010367013278811222 0.041162186804687174 -0.022882061218836833 -0.006729153718170923 0 0 0 0
172000000 0.010717141022323965 0.04256805132573412 -0.022835674901163325 -0.00555013204630352 0 0 0 0
173000000 0.010509637850653354 0.04112153835036652 -0.023047295742369953 -0.004354626566141324 0 0 0 0
174000000 0.011207879607148913 0.0417132115898728 -0.023075554567430812 -0.0029543575819991836 0 0 0 0
175000000 0.010631475257312922 0.042474168715405804 -0.023071442401710062 -0.0017278605108489598 0 0 0 0
176000000 0.010944644780790082 0.042860040756888276 -0.02276337949115613 -0.0006677677326350772 0 0 0 0
177000000 0.010728914651221192 0.04342441649842797 -0.02293732848744039 0.0003647723300981121 0 0 0 0
178000000 0.011274474881729989 0.042789026962236784 -0.022593748828796258 0.001774036061821006 0 0 0 0
179000000 0.011395890313681004 0.04273223723853241 -0.022228857621001526 0.0027762123532779973 0 0 0 0
180000000 0.011602339693914915 0.04315761515040508 -0.022071841653685673 0.004053924988530317 0 0 0 0
181000000 0.011625737208442002 0.04312621596659821 -0.02170618143321252 0.004874859607258884 0 0 0 0
182000000 0.011697808439920455 0.043743539309541446 -0.020949194979147406 0.006101415556670989 0 0 0 0
183000000 0.01143819171596428 0.043986468885884734 -0.020531033160003823 0.007088778060451047 0 0 0 0
184000000 0.011635636628569201 0.04349821056152939 -0.020243288783377545 0.008070522007491318 0 0 0 0
185000000 0.011541667900172014 0.044378165119784846 -0.01951791217225258 0.009073884184278336 0 0 0 0
186000000 0.011783382212240328 0.04415021823925126 -0.018966308739966905 0.009951215954201141 0 0 0 0
187000000 0.011718957080101733 0.04422312045347489 -0.01813389825727744 0.010994155245161346 0 0 0 0
188000000 0.012126895220424472 0.04491026316627877 -0.017498711998979816 0.011713335843994886 0 0 0 0
189000000 0.011643975180589539 0.0457053735307273 -0.01683516836945692 0.012516164489978228 0 0 0 0
190000000 0.012352377458404592 0.045358338452002364 -0.016051518843352576 0.013060930176782852 0 0 0 0
191000000 0.011676036809147177 0.04539087029159093 -0.015107071092971922 0.014049050926675565 0 0 0 0
192000000 0.014103269211459275 0.04389061439676342 -0.014285286041072057 0.014587860919999165 0 0 0 0
193000000 0.01261599778079823 0.04633651091289145 -0.013480603322673089 0.015211114672546893 0 0 0 0
194000000 0.012760838672750872 0.04639893704586008 -0.012678972584503614 0.015820960442763224 0 0 0 0
195000000 0.012102762848149531 0.04681042333342151 -0.01167822617329071 0.01632941051579987 0 0 0 0
196000000 0.012574505018702109 0.04620345575044888 -0.011061972788339496 0.016860361133601127 0 0 0 0
