# HZ S RI R 50
1000000 -0.000748571211001659 0.00016497883364554632 0.04647834085642634 -0.003357264240959076 0 0 0 0
2000000 -1.5163498675255098e-05 0.0004916686835706772 0.047897367107681735 -0.004511890022383497 0 0 0 0
3000000 3.09325068991556e-05 0.0013333459839811473 0.04767993246885252 -0.007048034610525288 0 0 0 0
4000000 0.0002880321257879047 0.0014280949887145573 0.04716355727087329 -0.009445115242968281 0 0 0 0
5000000 0.0005121903675825124 0.001539026956529727 0.04653738049486453 -0.011796392222381602 0 0 0 0
6000000 -0.00027387703150859343 0.001971227552812734 0.04579939471493069 -0.014058028183961442 0 0 0 0
7000000 -9.18869121336509e-05 0.0022258383385835097 0.044892280188952596 -0.016181534883822183 0 0 0 0
8000000 0.0002634961185423835 0.0027059550676070596 0.04403975764620195 -0.018297663373902304 0 0 0 0
9000000 0.00038696879898923237 0.0024821871028586117 0.043102934731681655 -0.020304270878309653 0 0 0 0
10000000 9.712222379076036e-05 0.002791727287906095 0.042034507522058555 -0.022360943229195327 0 0 0 0
11000000 0.0003152376804763799 0.0027568191448406627 0.040891044009601835 -0.024285758462605292 0 0 0 0
12000000 0.0006567145208287196 0.003071619423067147 0.03970839323113823 -0.026270092344726062 0 0 0 0
13000000 0.0002872599991508292 0.0035207409944879105 0.038462566824231645 -0.028168669966953695 0 0 0 0
14000000 0.0005278356318182836 0.0037205700572906487 0.03708955604767212 -0.030062477548380397 0 0 0 0
15000000 0.000991756733464452 0.003794789290819824 0.03551620559684029 -0.03169925589660277 0 0 0 0
16000000 0.0008636002316707521 0.003916052056082077 0.03395179579434459 -0.03350862574149182 0 0 0 0
17000000 0.00046401611410320023 0.004647372712058664 0.03231896747103853 -0.035145399161631875 0 0 0 0
18000000 0.0006775670859016498 0.004149615363940882 0.030588594618417494 -0.03663110296412689 0 0 0 0
19000000 0.000992984886779074 0.004919211173659909 0.028674761169580013 -0.03814507393468364 0 0 0 0
20000000 0.000561567528099166 0.004470333837430917 0.026840887389642583 -0.03956354865621062 0 0 0 0
21000000 0.0009409155947022445 0.005265493995792985 0.0248004121253201 -0.04075716075274686 0 0 0 0
22000000 0.001143688932448527 0.005289853762099187 0.02275996538664974 -0.04190573282656683 0 0 0 0
23000000 0.0009723551690173365 0.00549244213393247 0.020646954956788345 -0.04301894386203216 0 0 0 0
24000000 0.00102636866184211 0.00596982359728744 0.018541226936406426 -0.043997933503901486 0 0 0 0
25000000 0.0007501145922878097 0.006231756595975847 0.016299596315537485 -0.04488267917531454 0 0 0 0
26000000 0.0014869378546655454 0.006259850072002107 0.014034562490063322 -0.04560040631297688 0 0 0 0
27000000 0.0010820423260379443 0.006099421172777335 0.011813188599408223 -0.04617152009364981 0 0 0 0
28000000 0.0015818929445558295 0.006308585059783678 0.009400338981026374 -0.046658170864129496 0 0 0 0
29000000 0.0012199183003171958 0.006879732252326493 0.007211703165770612 -0.04708154556026081 0 0 0 0
30000000 0.0016398899859618023 0.007284114943171535 0.004713891737369698 -0.047332564153336115 0 0 0 0
31000000 0.0012575083909500183 0.007513139965315155 0.002503332769591384 -0.047610631142489014 0 0 0 0
32000000 0.001377266516813935 0.007461109782290405 9.921780338540739e-05 -0.04750069063000319 0 0 0 0
33000000 0.0011836540169064737 0.0077728602095996895 -0.0022172524592511222 -0.04742987714111575 0 0 0 0
34000000 0.0016098359414214146 0.008386894333918316 -0.004551231616873888 -0.047300485921506506 0 0 0 0
35000000 0.0014086011178125898 0.00856107763771924 -0.006909563420212925 -0.04695837349280505 0 0 0 0
36000000 0.0021295472293175566 0.007971065292891242 -0.009206698412330155 -0.04646597216229789 0 0 0 0
37000000 0.0013979264297597268 0.008624901604968305 -0.01145656633072203 -0.04600358292664953 0 0 0 0
38000000 0.0018280632005541692 0.008527484575961497 -0.013680474228841683 -0.04530611349333181 0 0 0 0
39000000 0.0014953991011627768 0.009317870899905099 -0.015946507588767155 -0.04453531609272968 0 0 0 0
40000000 0.002171964877033229 0.009237140002219653 -0.01803603270103882 -0.043627690639200224 0 0 0 0
41000000 0.002160824354471897 0.00922767493516332 -0.02000529208032216 -0.04275150200637336 0 0 0 0
42000000 0.0022353738741680926 0.009791422054793482 -0.02233712109435546 -0.0415959220765892 0 0 0 0
43000000 0.00228127638439268 0.009487065924932637 -0.02421333554454026 -0.04043862059695195 0 0 0 0
44000000 0.0019044297795756933 0.010047135497617815 -0.02612380759773418 -0.039228191619601366 0 0 0 0
45000000 0.002445588600428099 0.010253256617882456 -0.02800593111364103 -0.037814247857168144 0 0 0 0
46000000 0.00216153589153384 0.01032255921960558 -0.029842520169448612 -0.03637994777406593 0 0 0 0
47000000 0.0024897202754570885 0.010449143942241348 -0.03152327966812087 -0.03486086678508761 0 0 0 0
48000000 0.0024861838109947734 0.010614343380420136 -0.0331763713980125 -0.03323884696099469 0 0 0 0
49000000 0.0026296701641105565 0.011329353099022423 -0.03469777442422194 -0.03159232719117347 0 0 0 0
50000000 0.0027967893105027945 0.011731431254622586 -0.03617815129382752 -0.02981185472372819 0 0 0 0
51000000 0.0030556362965087794 0.011641874754681644 -0.03763501207219971 -0.027906800672099767 0 0 0 0
52000000 0.0030428018306596157 0.011821330456892726 -0.03885672553866208 -0.026100234232187117 0 0 0 0
53000000 0.0030512992217981375 0.012276577568598783 -0.040094467458147 -0.02415485319636459 0 0 0 0
54000000 0.003058541011813525 0.011843305890220418 -0.04111084353450289 -0.0220750328253203 0 0 0 0
55000000 0.003069979023002741 0.01241606631654437 -0.042164860051853555 -0.02015762801336623 0 0 0 0
56000000 0.003232942672217137 0.013035790066777998 -0.04316081250268729 -0.017978749967134118 0 0 0 0
57000000 0.003409751358038892 0.013202263555476684 -0.04380503298477998 -0.015866071274823212 0 0 0 0
58000000 0.0034584188743217023 0.013369099431554716 -0.044522182622042855 -0.013688294777188425 0 0 0 0
59000000 0.0032199764930435147 0.01326525025025879 -0.04513320947850856 -0.011520269101206822 0 0 0 0
60000000 0.0036114989510644506 0.013440065348348485 -0.04554701624680754 -0.009251229055347794 0 0 0 0
61000000 0.004011524314859251 0.013772725620548152 -0.04595554810503974 -0.007018765538405129 0 0 0 0
62000000 0.003916041012828523 0.014044488282384674 -0.046139138628040775 -0.004794056942413083 0 0 0 0
63000000 0.003777424660907809 0.01425509229589822 -0.046400114409139645 -0.00252448262907481 0 0 0 0
64000000 0.00340160453489105 0.014580087866979646 -0.04623963138115951 -0.00019258761022471148 0 0 0 0
65000000 0.0036335845019647836 0.014650175649273813 -0.046240393634760645 0.0019612506610798557 0 0 0 0
66000000 0.004525191714186224 0.014904968222161698 -0.046120888413849176 0.004275108315558579 0 0 0 0
67000000 0.0036913845503779453 0.015270732778935795 -0.04571554855370649 0.006543264123476448 0 0 0 0
68000000 0.004314936026075936 0.015443760472833527 -0.045303182880250245 0.008698298997724539 0 0 0 0
69000000 0.004457605037880781 0.015738078427106828 -0.04493457365356482 0.010897526497504396 0 0 0 0
70000000 0.004174129023908153 0.015787179274455075 -0.04419602990349671 0.013033660008554304 0 0 0 0
71000000 0.004370991102128352 0.015881116974356922 -0.04343180407348132 0.015269651397744586 0 0 0 0
72000000 0.004363941402023734 0.01636771233533851 -0.04266695891630354 0.017243917108423375 0 0 0 0
73000000 0.004514186460415999 0.01659365760214289 -0.041842317925433935 0.019292554008003077 0 0 0 0
74000000 0.004617722883509329 0.015956276510043683 -0.040601962308870664 0.021236459138815753 0 0 0 0
75000000 0.0045517721018276175 0.016930283927394693 -0.03961287861669609 0.023215746152805406 0 0 0 0
76000000 0.004402467703833519 0.017250040342540993 -0.03836632440233808 0.025154410270951423 0 0 0 0
77000000 0.00415144359191436 0.01765364894953309 -0.03715036139176885 0.026956146847244275 0 0 0 0
78000000 0.004744145190161647 0.017822133864899448 -0.03566841274893086 0.028766555866255223 0 0 0 0
79000000 0.005013592606417668 0.01767913897545183 -0.03427663798142579 0.03042031115679178 0 0 0 0
80000000 0.0053414655196942626 0.018103844083796186 -0.03268000167045315 0.032006898263876586 0 0 0 0
81000000 0.005008396819128713 0.018243182331788434 -0.03112239708359757 0.03357571895601174 0 0 0 0
82000000 0.005144078973230322 0.018217120111599167 -0.029505924842862456 0.03501159696831772 0 0 0 0
83000000 0.00572267540446344 0.01848255237921121 -0.027740720762440316 0.03641676280419509 0 0 0 0
84000000 0.0054817357577396685 0.019076813114520343 -0.02582241904908917 0.03775297321189262 0 0 0 0
85000000 0.005626288117249911 0.019427562194238142 -0.023950143178968007 0.038971074633694126 0 0 0 0
86000000 0.0060295479059632485 0.019753889194237317 -0.02201858345728954 0.04002556641572095 0 0 0 0
87000000 0.006200610842075958 0.02003503558804808 -0.020041058425275867 0.04100052557305646 0 0 0 0
88000000 0.005532453831668739 0.020102054667496858 -0.018103875437869423 0.04194177936430002 0 0 0 0
89000000 0.005877880507765319 0.020320762383143065 -0.01610129546202817 0.04270384448348782 0 0 0 0
90000000 0.00578718952119662 0.020430591612671703 -0.013961710460287362 0.043508175988331434 0 0 0 0
91000000 0.006313934441170073 0.020475250619043085 -0.011891040718261952 0.04409248363715582 0 0 0 0
92000000 0.006453587366913146 0.02073022754999155 -0.009718514542816697 0.04459633341747892 0 0 0 0
93000000 0.006609931331911385 0.02151279319197378 -0.007620220452924338 0.04503333801322572 0 0 0 0
94000000 0.006845359041239381 0.02133802727200686 -0.005416761859980123 0.045264459413410646 0 0 0 0
95000000 0.006740920417091379 0.022118537309811552 -0.0032221596885951137 0.04544727270889707 0 0 0 0
96000000 0.006936710416086622 0.022179376070966986 -0.00107488997387892 0.045609738027393223 0 0 0 0
97000000 0.007060809629153681 0.022622733701986402 0.0012591992048876862 0.04552431898882804 0 0 0 0
98000000 0.0063166879413200806 0.021864865598148608 0.0034532102999494203 0.045404713284178624 0 0 0 0
99000000 0.006793909466217716 0.022987242203075228 0.005561766533822052 0.045207963397168635 0 0 0 0
100000000 0.007042773789164378 0.022455434901885684 0.007821472996473016 0.04487636983319028 0 0 0 0
101000000 0.00728138651213469 0.023218324703709502 0.010013438214213325 0.044391509052761007 0 0 0 0
102000000 0.007153206248436707 0.023348670477237647 0.01229708870545168 0.04384859196075834 0 0 0 0
103000000 0.006869986629846272 0.02356337449229408 0.014402831699415935 0.043232971067522885 0 0 0 0
104000000 0.007244489777715108 0.0236552416180392 0.016549846314062932 0.04255684643329342 0 0 0 0
105000000 0.007138794614234154 0.023794737052960237 0.018493948853109295 0.04163975477132387 0 0 0 0
106000000 0.00745970062522909 0.024279983198994604 0.020549814750485423 0.040643625495181496 0 0 0 0
107000000 0.007260712916232028 0.024523226887957557 0.022547399413446797 0.039546893676313456 0 0 0 0
108000000 0.007042524060782913 0.024791470700344122 0.02440673200942798 0.03839820461291275 0 0 0 0
109000000 0.007501841506146793 0.025153493112659575 0.026326436497951848 0.037141737438021044 0 0 0 0
110000000 0.00755614483664577 0.025363360476725418 0.028136562632528814 0.03574710950223175 0 0 0 0
111000000 0.007786528857896645 0.025580329272884082 0.02979624925073001 0.03434416006963578 0 0 0 0
112000000 0.007292823429803881 0.02569350677452695 0.03140184406877087 0.032896220998562535 0 0 0 0
113000000 0.00750623008824871 0.026124310617252747 0.033085430803571285 0.03131603904512377 0 0 0 0
114000000 0.007593058496913546 0.02615193759549314 0.03452351625696342 0.029651381566252098 0 0 0 0
115000000 0.007792188793814522 0.02684795934785458 0.035972090130788205 0.027828591662802698 0 0 0 0
116000000 0.007785415447468519 0.02712215246481605 0.03727971907129467 0.026090672559698203 0 0 0 0
117000000 0.007947885096638647 0.02694234748373573 0.03845215445336758 0.024171060035142144 0 0 0 0
118000000 0.008071288779470814 0.027192461560043762 0.039692936662384666 0.022251333042925828 0 0 0 0
119000000 0.008315512132399287 0.027679987256158774 0.04065194993699958 0.02025422381142205 0 0 0 0
120000000 0.008277053070527703 0.027752844260084848 0.041651183314476974 0.01824203550542901 0 0 0 0
121000000 0.008137844067440999 0.02791194004159227 0.042512081945725665 0.01606697970803897 0 0 0 0
122000000 0.00828170539624878 0.027978498593268057 0.04337957313075492 0.013961499362728263 0 0 0 0
123000000 0.008186261252502334 0.028220399163855246 0.0439402575221159 0.011915913823953123 0 0 0 0
124000000 0.008539802202545877 0.02839148583584082 0.04452293909392269 0.009640196149120192 0 0 0 0
125000000 0.008287250288435528 0.0290082428722436 0.0449497735964468 0.0073705074560914095 0 0 0 0
126000000 0.008542670171249283 0.028788193903810634 0.045282975979655964 0.005175907696062145 0 0 0 0
127000000 0.00822221497127421 0.02934233839454901 0.04547237750115722 0.002892816057331797 0 0 0 0
128000000 0.008382992018290535 0.029516504171456376 0.0455503806253123 0.0006460589534120357 0 0 0 0
129000000 0.008469159209357835 0.02979736045028174 0.04552488847639409 -0.0016973965653964212 0 0 0 0
130000000 0.008328769952602752 0.030056041906176667 0.045454294314429836 -0.0038890819233312023 0 0 0 0
131000000 0.00814906078616883 0.03019143629536695 0.045166496980206625 -0.006261268110107132 0 0 0 0
132000000 0.00846716447682398 0.030245987475772135 0.044759727901569325 -0.008413334506543153 0 0 0 0
133000000 0.008834093663776365 0.030665234389093975 0.04428965056725059 -0.010752857312121925 0 0 0 0
134000000 0.008914207518229404 0.03128276640510332 0.0436593854617643 -0.012929048161661509 0 0 0 0
135000000 0.00850630963829692 0.03144453937410997 0.042901040329319864 -0.015121204766952917 0 0 0 0
136000000 0.008686454418713664 0.031192524232331955 0.04207767193787443 -0.01730904179462332 0 0 0 0
137000000 0.008746004297722057 0.03168291997025988 0.041193191421179394 -0.01936122172585849 0 0 0 0
138000000 0.009348843460427624 0.031795649957649066 0.040146639713495386 -0.021421221929162054 0 0 0 0
139000000 0.009082624237453882 0.03189473445568011 0.03912871349784421 -0.023316534528568536 0 0 0 0
140000000 0.009042519034031702 0.03236051035852692 0.03769893386406856 -0.025267760152933732 0 0 0 0
141000000 0.009027996789804676 0.032917776621791434 0.036227447559734255 -0.027140116201744814 0 0 0 0
142000000 0.00904718404954254 0.03298887631868531 0.03496489362300349 -0.02899913203166217 0 0 0 0
143000000 0.008966282202416288 0.03377120455089114 0.03347038783284615 -0.030594548287657744 0 0 0 0
144000000 0.009520543338196233 0.03211284095423769 0.03171143490102544 -0.032334413168744525 0 0 0 0
145000000 0.00820768708919055 0.03361039305412447 0.02996890868753369 -0.03398231890096101 0 0 0 0
146000000 0.008962412919288558 0.033515416559172895 0.02838416975467672 -0.035236977224215156 0 0 0 0
147000000 0.008262121982362721 0.0340354561798609 0.02630092078492132 -0.036735284542080436 0 0 0 0
148000000 0.008651504491039543 0.034074840886374295 0.024557139542148183 -0.03794933984249122 0 0 0 0
149000000 0.009504398778563725 0.034350894120620194 0.022496910683542176 -0.039198503614035235 0 0 0 0
150000000 0.00928431728610639 0.03471919819157879 0.020532880260263432 -0.040211588150173665 0 0 0 0
151000000 0.009744338598596164 0.035083202897965696 0.018378730743504147 -0.041280236883249714 0 0 0 0
152000000 0.009185054487167745 0.035249303667323026 0.01605447817880223 -0.041967168052632814 0 0 0 0
153000000 0.008888632064847373 0.03430667954340988 0.013946157089833803 -0.04272753209755912 0 0 0 0
154000000 0.010041773018907933 0.03598332026282332 0.011769802502671215 -0.043286106258340416 0 0 0 0
155000000 0.009526823671373088 0.03491378813235759 0.0094742820067748 -0.04391334562290001 0 0 0 0
156000000 0.009526973615790111 0.03605730322635419 0.007200167631982259 -0.044086093961337405 0 0 0 0
157000000 0.010082902597389594 0.036274639039658114 0.004931793072706897 -0.04444030055437644 0 0 0 0
158000000 0.009732734166735398 0.03571979830502024 0.002627724754100957 -0.044638262488140595 0 0 0 0
159000000 0.009013766083521717 0.036566964592224485 0.00043849788305213346 -0.044695039576271134 0 0 0 0
160000000 0.009551878714388541 0.03555101709870428 -0.0019026965344601237 -0.04452407061976783 0 0 0 0
161000000 0.010245154905132113 0.0368682486471953 -0.0042728576510106826 -0.044200687191650316 0 0 0 0
162000000 0.009393865578361214 0.0367135774490951 -0.006532988084132363 -0.04404010004191737 0 0 0 0
163000000 0.008982044121796677 0.0378933769180063 -0.00883971696230108 -0.043543230734272284 0 0 0 0
164000000 0.01019480488276974 0.03669689613003157 -0.010720052632265874 -0.042966266482889634 0 0 0 0
165000000 0.01056370964085487 0.03742063879746714 -0.013160206570788993 -0.042413037994839815 0 0 0 0
166000000 0.010280056041611944 0.03777109599281923 -0.015325780736759146 -0.04121167125751731 0 0 0 0
167000000 0.010221907359916469 0.03744213718699692 -0.017212734196978323 -0.040528025271264125 0 0 0 0
168000000 0.011207498927067053 0.03757825480777417 -0.01934658293469586 -0.03941963194070414 0 0 0 0
169000000 0.010014884892240011 0.03862521614444581 -0.02137504573671881 -0.03840183894446547 0 0 0 0
170000000 0.010724694993668732 0.0385916354845465 -0.023167833454632237 -0.03722410256748103 0 0 0 0
171000000 0.010052617187721248 0.038688119994445574 -0.025207469208150337 -0.03582109246413529 0 0 0 0
172000000 0.010689116694950223 0.03994796240817818 -0.02690053406729207 -0.03451838501630068 0 0 0 0
173000000 0.010080973676771772 0.03926804459979977 -0.028647988910271784 -0.032866199479692035 0 0 0 0
174000000 0.010749340275148492 0.03980077241792153 -0.03022762683309921 -0.031377837526455794 0 0 0 0
175000000 0.010072306487588717 0.03982205956133253 -0.03173635454044277 -0.02961056972707877 0 0 0 0
176000000 0.01059144342967491 0.04063213481501867 -0.033201813279508996 -0.028041287459907315 0 0 0 0
177000000 0.010408326417290573 0.04094987279664368 -0.03449145593702506 -0.026276693016689705 0 0 0 0
178000000 0.010903953826566785 0.039660870499832065 -0.03561828928856875 -0.024182987105831277 0 0 0 0
179000000 0.010570612016355205 0.04090441833661129 -0.03678927904478102 -0.02236833870192296 0 0 0 0
180000000 0.0110909987904053 0.04039756876053778 -0.03793310123192919 -0.02017183815718201 0 0 0 0
181000000 0.011008424154871386 0.0405651401946307 -0.038679823710742904 -0.01846120944064827 0 0 0 0
182000000 0.010653927704368035 0.041695458370613045 -0.039525025506790365 -0.01620106480797245 0 0 0 0
183000000 0.011452078513291667 0.04106811795635728 -0.04029283559598665 -0.014102509959544169 0 0 0 0
184000000 0.010445905360001681 0.04183621471269917 -0.040838200791153155 -0.012084130914131547 0 0 0 0
185000000 0.011138122306204269 0.04198687748913066 -0.04128032217301557 -0.009750971597316386 0 0 0 0
186000000 0.01159851119412854 0.04243472465368247 -0.04191095727465715 -0.0078080386771286325 0 0 0 0
187000000 0.0107339475145617 0.042019055463481295 -0.04202540937719883 -0.005326435600027248 0 0 0 0
188000000 0.011917944303918319 0.04208980803192997 -0.04187210129194244 -0.0032937388923538814 0 0 0 0
189000000 0.010971173523524004 0.04309859375514322 -0.042111764669716265 -0.0010322939567382705 0 0 0 0
190000000 0.011218076849131231 0.0423540254572414 -0.041839040243755725 0.0012184249993495509 0 0 0 0
191000000 0.011266578715518434 0.0423770279565995 -0.041700091667105324 0.003248546821218511 0 0 0 0
192000000 0.012006253697166916 0.04351129336144824 -0.04149111861726914 0.005521358670102704 0 0 0 0
193000000 0.011994752315555655 0.043375577717947526 -0.0409884180114621 0.0077218948197217184 0 0 0 0
194000000 0.011650843337514578 0.04383362544894943 -0.0403544812709766 0.009751593756279257 0 0 0 0
195000000 0.011193664917069484 0.0440607035064667 -0.03958412752774068 0.011875839436908014 0 0 0 0
196000000 0.011982447659730196 0.04375369865168156 -0.03886653565332931 0.013814927442553918 0 0 0 0
