# HZ S RI R 50
1000000 -0.0011274598944888026 -9.308706322630256e-05 0.04704418218984832 -0.003135883069046051 0 0 0 0
2000000 -0.0005053348169763111 0.0005380550795628519 0.048546339136048056 -0.004190638523053917 0 0 0 0
3000000 -0.00019797853336008762 0.0012723368992824749 0.048313633309189065 -0.006610730140770344 0 0 0 0
4000000 5.6201722641532496e-05 0.0010365979335679365 0.047910050052831554 -0.008896738379905636 0 0 0 0
5000000 -9.115678676570763e-05 0.0011745452422232431 0.047322716084300234 -0.011138496551381974 0 0 0 0
6000000 -8.760067223748448e-05 0.0024305905102028364 0.04660270515185354 -0.013316393889464428 0 0 0 0
7000000 0.00020645448460106385 0.00214755361587305 0.04596268881902816 -0.015374613456674678 0 0 0 0
8000000 0.0004981328730809198 0.0022931356763550774 0.04524509926183716 -0.017403178592887765 0 0 0 0
9000000 0.0004354235997172337 0.0024878978661238465 0.04435328679652171 -0.01944035839512386 0 0 0 0
10000000 7.554597692812369e-05 0.0027542479512253984 0.04348388573624048 -0.021439072895758377 0 0 0 0
11000000 0.00020985751696759195 0.00281087604642884 0.042381953296304536 -0.02327665943316303 0 0 0 0
12000000 0.000510903845229026 0.0036986747669075447 0.04137822940894853 -0.025236510498299336 0 0 0 0
13000000 0.0001657684022317456 0.0035083675172134397 0.04032535438537685 -0.027123720626414802 0 0 0 0
14000000 0.00010880491055258374 0.0034249829735847827 0.03905569299550048 -0.028958387176225394 0 0 0 0
15000000 0.0009050854539529007 0.003925640247133434 0.03769354327767534 -0.030641998976414873 0 0 0 0
16000000 0.0007370691891810006 0.0041377834224903 0.03630414027249321 -0.032474663433043144 0 0 0 0
17000000 0.00027373788806208266 0.004417196453249028 0.034856003294551255 -0.034181095353073336 0 0 0 0
18000000 0.0012014367638339427 0.0044051462640761095 0.03327527279541263 -0.03581788229047883 0 0 0 0
19000000 0.0009253461879274192 0.005056160983652352 0.03161019678291413 -0.037423942262442805 0 0 0 0
20000000 0.0004841536942111423 0.004659462086140047 0.029866613756447426 -0.03886398392431718 0 0 0 0
21000000 0.001022578656122007 0.005666028217624516 0.02798317492043042 -0.04027317977758747 0 0 0 0
22000000 0.0011236478519736168 0.005534523876614019 0.02620066944243601 -0.04150325069663486 0 0 0 0
23000000 0.0006225868543086716 0.005787527373412577 0.024261664313351097 -0.04283041184996761 0 0 0 0
24000000 0.0011694357162677868 0.006031279335305226 0.02216841056016961 -0.04396587330891075 0 0 0 0
25000000 0.0008706816313706144 0.006043879166250192 0.020132673627844617 -0.04503147848790475 0 0 0 0
26000000 0.0013220001906395875 0.006285875825297573 0.01802486079888002 -0.0459791345178057 0 0 0 0
27000000 0.0011072103620566379 0.006771241663842942 0.015811494497602715 -0.046771160870159846 0 0 0 0
28000000 0.001382717314731147 0.006701982236097418 0.01358848036254485 -0.04750872202046878 0 0 0 0
29000000 0.001486645900278357 0.007103202348343788 0.011384443905342942 -0.04819766640684838 0 0 0 0
30000000 0.0015551208271350485 0.0068714044475486485 0.009039676701233389 -0.04868588204540151 0 0 0 0
31000000 0.0016099806198937683 0.0076471137626516455 0.006878596590097604 -0.0491739074428451 0 0 0 0
32000000 0.0009903036400437653 0.007810867779643072 0.004472824280259993 -0.0494298329153027 0 0 0 0
33000000 0.001609310220164864 0.008015715501942633 0.0022210752538060975 -0.04962195284430134 0 0 0 0
34000000 0.0012071710949854463 0.008243462615923893 -0.00017296459063114957 -0.04973226715907778 0 0 0 0
35000000 0.0016739113980000061 0.008231213942656714 -0.0025124723158423 -0.04971383644556653 0 0 0 0
36000000 0.0018852613452952816 0.008626736834236391 -0.004919056116369507 -0.04957220190342099 0 0 0 0
37000000 0.001975665966483477 0.008360678280742464 -0.007136479818609484 -0.049408262462181836 0 0 0 0
38000000 0.002312680936529092 0.008881819173683452 -0.009452864049221826 -0.04898066940542878 0 0 0 0
39000000 0.0014931610748627263 0.008796404086403848 -0.011871612939051307 -0.04851109180918529 0 0 0 0
40000000 0.00217315287778778 0.009467481927998601 -0.01411703958647767 -0.04795518819534302 0 0 0 0
41000000 0.002370200014542052 0.009863063494360967 -0.016437106366770447 -0.047504626803796905 0 0 0 0
42000000 0.002010695557061235 0.009943370681474743 -0.018709443083700483 -0.046506094214243766 0 0 0 0
43000000 0.0019843370109848993 0.009551289849193534 -0.02093407922360768 -0.045644997757453606 0 0 0 0
44000000 0.002084521867139142 0.01013077297299676 -0.022936708640041614 -0.04466754520297594 0 0 0 0
45000000 0.0023842343008457206 0.010213130063407546 -0.025132049047381925 -0.043647190017689075 0 0 0 0
46000000 0.002133441272418164 0.01056825899145989 -0.02718083738825069 -0.042405180460389 0 0 0 0
47000000 0.0022233807663320877 0.010736626813457674 -0.02912791807849117 -0.041168793028673566 0 0 0 0
48000000 0.002346197711522771 0.010797290308919306 -0.03110600322999095 -0.03975429556973387 0 0 0 0
49000000 0.002359589580581954 0.011482830494143685 -0.03299817827826188 -0.038325264591261815 0 0 0 0
50000000 0.002924209464897899 0.011912961568218354 -0.034842577913669716 -0.03672542312348036 0 0 0 0
51000000 0.0030589489578007555 0.01150837459470386 -0.03646705360697148 -0.03505332252820284 0 0 0 0
52000000 0.002811272845574921 0.01199910134645673 -0.038321691395121225 -0.03343631860615454 0 0 0 0
53000000 0.0031658835346641857 0.012429981639754591 -0.03981343975371883 -0.031525333668447564 0 0 0 0
54000000 0.002600218076503113 0.011934359639036378 -0.04141282257993167 -0.02986279285541051 0 0 0 0
55000000 0.0028794537686588884 0.012745571500808012 -0.04280466561475786 -0.02777180705498681 0 0 0 0
56000000 0.0037570791490002353 0.013152734977772884 -0.04411659382372778 -0.02568506205566521 0 0 0 0
57000000 0.0034574205484993173 0.01371894788787726 -0.04527488827214321 -0.02362127131817801 0 0 0 0
58000000 0.0032846309589565476 0.013351908937604375 -0.04645544012488558 -0.021430550640468362 0 0 0 0
59000000 0.003194687272181326 0.013677050852903683 -0.04749237002048907 -0.019342448540964195 0 0 0 0
60000000 0.0035427560287540263 0.013849854046552599 -0.04837162668404076 -0.01707256463185384 0 0 0 0
61000000 0.0036163590049739054 0.01362258831691227 -0.04926397503712325 -0.01477642955248553 0 0 0 0
62000000 0.0036685859162089414 0.014115665184011427 -0.049973540085899916 -0.01245285016727471 0 0 0 0
63000000 0.003923772190741633 0.014427716240708318 -0.05063368365115153 -0.010112529891486415 0 0 0 0
64000000 0.003609835042040841 0.014661634284340586 -0.05093338551706238 -0.007665111761872702 0 0 0 0
65000000 0.0037526887607560373 0.014832214416222303 -0.051389760884533696 -0.005240853954011103 0 0 0 0
66000000 0.00430462615831785 0.0150456040651039 -0.051832849961547696 -0.00275517961875097 0 0 0 0
67000000 0.0037410500303422423 0.015342967439371743 -0.051837865496727 -0.00023753866994833032 0 0 0 0
68000000 0.004200106773332997 0.015483696774338357 -0.05193049314958073 0.0022072875209550335 0 0 0 0
69000000 0.004470215807603361 0.015828332526799258 -0.05190247642186976 0.004639028091864194 0 0 0 0
70000000 0.004130454047784843 0.0160522675788375 -0.051656506611657736 0.007173140032869791 0 0 0 0
71000000 0.004371420175930832 0.015727709903225185 -0.051326832103103535 0.009664642060139148 0 0 0 0
72000000 0.004428796421822305 0.016199404036957896 -0.05093856787402908 0.012104435494080135 0 0 0 0
73000000 0.004454187341260836 0.016723304058114962 -0.05034199654895701 0.014559709200758258 0 0 0 0
74000000 0.004824611848121953 0.015375317080084494 -0.04956779797767045 0.016988324923759 0 0 0 0
75000000 0.004757832448279302 0.016822580486852465 -0.04894448267644473 0.01942207767833776 0 0 0 0
76000000 0.004563321893067961 0.017086303041042902 -0.04791728035474284 0.021833649475150547 0 0 0 0
77000000 0.00465615829011351 0.017458426706707417 -0.04689707049317681 0.024200255172967988 0 0 0 0
78000000 0.004873751815943866 0.017368676156707674 -0.045800139810654415 0.026423670889793995 0 0 0 0
79000000 0.00495430430262809 0.01788441553494477 -0.044530859831891395 0.028586661860670246 0 0 0 0
80000000 0.005296508621256468 0.018231341135142385 -0.04305369237048654 0.030847986757277263 0 0 0 0
81000000 0.005183667565019946 0.018307736219593328 -0.04173805335643827 0.032968401125478296 0 0 0 0
82000000 0.0052715801166228074 0.018713864829358037 -0.04010630503624243 0.034990803372773514 0 0 0 0
83000000 0.005774924457443784 0.01861773591268854 -0.038404776495228554 0.036957373065430156 0 0 0 0
84000000 0.0050139714520947565 0.01899112844773655 -0.036646243189278754 0.038926246841091416 0 0 0 0
85000000 0.005501481966121871 0.018942565978266043 -0.03480313761441697 0.04077395536603958 0 0 0 0
86000000 0.005502508071689194 0.019769694702048177 -0.032756517462075245 0.04254799709172265 0 0 0 0
87000000 0.0062058363710306595 0.020173272464199168 -0.03074863212982098 0.04419492764608599 0 0 0 0
88000000 0.0054619427491727785 0.019518715472435954 -0.028729020351567096 0.04572004131931566 0 0 0 0
89000000 0.006277370260776612 0.019902876620059327 -0.026515791748837725 0.04717757555725463 0 0 0 0
90000000 0.0061627600950038865 0.02026109109388548 -0.024251620005498985 0.04850867783136681 0 0 0 0
91000000 0.006563707774178947 0.020147122247381133 -0.021918523308050823 0.049675310008372345 0 0 0 0
92000000 0.006541165396460035 0.020867895688046704 -0.019546883923270763 0.05079637091227895 0 0 0 0
93000000 0.006214608415288188 0.02153160526498832 -0.0170381070814236 0.05184527850404338 0 0 0 0
94000000 0.006350601264558053 0.021127442117129743 -0.014581552145447681 0.05270993322155707 0 0 0 0
95000000 0.006355499864589567 0.022015462634761923 -0.011957112526450672 0.05338126439177821 0 0 0 0
96000000 0.00678594132878308 0.02196697055541658 -0.009446623736698852 0.0540660344852891 0 0 0 0
97000000 0.0068442501554401465 0.02218148084007791 -0.0067459572038444824 0.05463254188440298 0 0 0 0
98000000 0.0063443799756994265 0.022134905879624304 -0.003971074588348117 0.054986149259022475 0 0 0 0
99000000 0.006792228150238351 0.022643225249011863 -0.0013787803315676445 0.055178151935558147 0 0 0 0
100000000 0.006273934691569456 0.022113650422392724 0.001538799925291915 0.05537617617123336 0 0 0 0
101000000 0.006639742598581078 0.02266871177572735 0.004152935739793997 0.05526314074269008 0 0 0 0
102000000 0.007357977357517743 0.022743455050216358 0.007180441649551072 0.055176545706800875 0 0 0 0
103000000 0.007294574056659664 0.02339301151750135 0.009771239073934764 0.05493830290711352 0 0 0 0
104000000 0.007159939611820813 0.023465098737062935 0.012720041657796943 0.054495596162725916 0 0 0 0
105000000 0.006530785842567673 0.02355159438798615 0.015358742824538365 0.05378932749557408 0 0 0 0
106000000 0.00728869474599975 0.02363276237011186 0.018033918589649048 0.053044289818650905 0 0 0 0
107000000 0.007483533457997445 0.023683260899157368 0.02079864809542468 0.05220896006080386 0 0 0 0
108000000 0.007317171427303208 0.02476171679986848 0.023277705205576146 0.05121620756159521 0 0 0 0
109000000 0.0075245031812742605 0.025098523327801735 0.025955723412367786 0.05003036328125373 0 0 0 0
110000000 0.00730415750249679 0.025252771963867483 0.028497890117950998 0.04868616844785834 0 0 0 0
111000000 0.007572898391496108 0.025344664355709076 0.030933114305286138 0.04733302114922199 0 0 0 0
112000000 0.007796064537139183 0.02516457875195964 0.033370643096845704 0.045807479717162404 0 0 0 0
113000000 0.007652928467116707 0.02556546924335012 0.03581371686501325 0.04402149206891185 0 0 0 0
114000000 0.008001244870696526 0.025838073754263072 0.03798752182485376 0.042241761073362624 0 0 0 0
115000000 0.008090124171863911 0.026264207315790943 0.04018836568497631 0.04031332554459838 0 0 0 0
116000000 0.008210578169451631 0.026678424691210085 0.042269678703577854 0.03828914556601965 0 0 0 0
117000000 0.007571585415714481 0.02646562658320266 0.04414369036590605 0.03605167156147839 0 0 0 0
118000000 0.008222604701000362 0.02662502052062593 0.0461179259383019 0.033841226262044846 0 0 0 0
119000000 0.008659713530198692 0.027328846984437636 0.047777953314186876 0.03151602838737511 0 0 0 0
120000000 0.0085894114588581 0.02746602819902028 0.049429410025231664 0.029177395963429723 0 0 0 0
121000000 0.00851303336064252 0.02767006113137969 0.05089277985113167 0.02653000000098976 0 0 0 0
122000000 0.008231686538830699 0.02767436034751994 0.052385220702206324 0.02394422685896948 0 0 0 0
123000000 0.008205563561034229 0.027598907733460572 0.05355990915768957 0.021200418026616347 0 0 0 0
124000000 0.008818467722354622 0.027692749458087636 0.05466847735663243 0.018411412597321604 0 0 0 0
125000000 0.008631073892299893 0.028282759038390354 0.05564438089437658 0.015673422495214324 0 0 0 0
126000000 0.008745524091210896 0.028751349143219293 0.056381823231251106 0.012795120923719261 0 0 0 0
127000000 0.008239319845747004 0.0294895227462655 0.05705417183901058 0.009878651320824923 0 0 0 0
128000000 0.008449096689045574 0.028704050513772165 0.05755464573241395 0.006837143969607932 0 0 0 0
129000000 0.009196358842047064 0.028894897282067913 0.057864571469785235 0.0038792194587420337 0 0 0 0
130000000 0.008624041744692506 0.029952721095781773 0.05801905148335448 0.0008760811238500101 0 0 0 0
131000000 0.008357191257674501 0.02990975211835896 0.058033599625560095 -0.002243202395347361 0 0 0 0
132000000 0.008935205779228232 0.0298843596330178 0.057965255795176175 -0.005151152411531765 0 0 0 0
133000000 0.00897490939558104 0.029589217773433277 0.057646126316411146 -0.008270316055032234 0 0 0 0
134000000 0.009686850944742288 0.030529189825049888 0.0571124625640535 -0.011139416942736326 0 0 0 0
135000000 0.009197601932121716 0.031220102649077406 0.05655050763961618 -0.014089530292503075 0 0 0 0
136000000 0.009231906603977165 0.03079016006071903 0.05569452679925022 -0.017136035643095713 0 0 0 0
137000000 0.008641245633502085 0.03063682733016876 0.054831143951911944 -0.020052849262178426 0 0 0 0
138000000 0.009165490941442754 0.030529822675874344 0.05368198371028975 -0.022913511004683706 0 0 0 0
139000000 0.009702564224168266 0.03079262472543697 0.05244816260405884 -0.025666168947083602 0 0 0 0
140000000 0.008844438695881692 0.03169104246690703 0.05093779763316 -0.028381704712463054 0 0 0 0
141000000 0.0093455129454273 0.03162996223587935 0.049391944176495686 -0.03110202503091762 0 0 0 0
142000000 0.00920707902864528 0.03158937025004909 0.047716658766754606 -0.033483819152378705 0 0 0 0
143000000 0.010080346992071398 0.032187971604757976 0.04581022374886771 -0.036045469540071415 0 0 0 0
144000000 0.010657062938844407 0.03150699524048306 0.04382304127472245 -0.03824997927191165 0 0 0 0
145000000 0.009324149823563953 0.032518289514087924 0.041668321895642534 -0.04067411637938454 0 0 0 0
146000000 0.009514229048831497 0.03181663030515489 0.039541896045932425 -0.04261446384199316 0 0 0 0
147000000 0.00879129193619379 0.03309040675764623 0.03718680938598499 -0.04487452018885301 0 0 0 0
148000000 0.009532012686266727 0.03247837380124679 0.03462077455817086 -0.046656695753936966 0 0 0 0
149000000 0.009225294972601798 0.03307348023273556 0.0322774877769956 -0.048493400112439064 0 0 0 0
150000000 0.009452112311345203 0.0335516835551466 0.029469306643744555 -0.05008650154474775 0 0 0 0
151000000 0.009792636700730634 0.0342781882964702 0.02673130497441897 -0.05167029985279581 0 0 0 0
152000000 0.010175530451555396 0.03423894310132172 0.024072522300172816 -0.05290105658313474 0 0 0 0
153000000 0.009547729003836498 0.03365237286268501 0.02094722260733992 -0.054012758625065486 0 0 0 0
154000000 0.00974488329463724 0.034681357015866214 0.018134336891647614 -0.05487145708299064 0 0 0 0
155000000 0.010210391672142986 0.0341130533022351 0.015202197093909926 -0.055722193104302445 0 0 0 0
156000000 0.009934397851221816 0.034707783220923626 0.012173249677447023 -0.05644650717690924 0 0 0 0
157000000 0.010569290182245556 0.03571699188169875 0.009218662468764483 -0.057037293136315496 0 0 0 0
158000000 0.010279017405474244 0.03529020681316319 0.0059924130961145705 -0.05723634532709099 0 0 0 0
159000000 0.009672345089440515 0.035359681354402775 0.003051954407005354 -0.057277452863475624 0 0 0 0
160000000 0.010065417291902523 0.03453764314514854 7.949164117018502e-05 -0.057286221296434015 0 0 0 0
161000000 0.010691706959625877 0.035713635340627034 -0.003292112378618764 -0.05705243047481121 0 0 0 0
162000000 0.01039698497450091 0.03526374713955737 -0.006235878197644709 -0.05680307171463472 0 0 0 0
163000000 0.010146343581780475 0.03603830594846333 -0.00924602334732957 -0.05619393934034972 0 0 0 0
164000000 0.010264313731414018 0.0364291379265114 -0.012121160314832931 -0.05558264586163827 0 0 0 0
165000000 0.010698727231556458 0.03654372927790189 -0.015105170341094378 -0.05476636274818684 0 0 0 0
166000000 0.010487510213642333 0.03645643323532789 -0.01793445484181658 -0.05369128709888205 0 0 0 0
167000000 0.011469248048371097 0.036427532768691526 -0.020516962977024666 -0.05249297701372834 0 0 0 0
168000000 0.011222761473060252 0.03711715272775657 -0.02349443746731787 -0.05125604598485474 0 0 0 0
169000000 0.010902023412696044 0.03739052978649941 -0.026030820052931204 -0.04966293075926297 0 0 0 0
170000000 0.011506497653155257 0.03681703775870854 -0.028451487983046624 -0.04798865015784868 0 0 0 0
171000000 0.010917364684383457 0.037088429880287974 -0.031145483372681915 -0.04637598937396581 0 0 0 0
172000000 0.011360261298131055 0.0386041680246364 -0.03348341552468819 -0.04456420320315721 0 0 0 0
173000000 0.010942812004153727 0.0374367846403631 -0.03570009285127328 -0.042546284609685 0 0 0 0
174000000 0.011207844653365363 0.03807905623420881 -0.03775811427647455 -0.040204977194880184 0 0 0 0
175000000 0.01082984824124722 0.03859910590287475 -0.03981175984789165 -0.03820506998861505 0 0 0 0
176000000 0.011272412518267837 0.03897633532192595 -0.04143439308586388 -0.0360314606339642 0 0 0 0
177000000 0.01167562711843325 0.03889572810731409 -0.04323776458202375 -0.03357985379106096 0 0 0 0
178000000 0.011642964832004032 0.038719217719454024 -0.044819327737397836 -0.031000965166593807 0 0 0 0
179000000 0.011792592582285011 0.038942892771380425 -0.04624183183746746 -0.028556586029286464 0 0 0 0
180000000 0.012051785471373333 0.03892468482648215 -0.04748984601810855 -0.026004371021024 0 0 0 0
181000000 0.011845166132223186 0.03938239091857179 -0.04864630915149884 -0.023276349073146366 0 0 0 0
182000000 0.011682217928039595 0.039682086907790924 -0.04950028322851232 -0.020656371960863253 0 0 0 0
183000000 0.012366677883305381 0.040367757931641726 -0.050485799871562036 -0.017747299409431355 0 0 0 0
184000000 0.011974981776032519 0.039605680915777805 -0.051044165715249744 -0.014945316785877454 0 0 0 0
185000000 0.011742122987968492 0.04019125072387765 -0.05146877734937035 -0.012410281525672343 0 0 0 0
186000000 0.012351689027981817 0.04016210021082909 -0.051879579379727404 -0.009416772883953678 0 0 0 0
187000000 0.011299830796425379 0.04056793204564374 -0.05228576958368389 -0.006614491914200977 0 0 0 0
188000000 0.012360588174607494 0.040380735134884875 -0.052005276614826276 -0.003997951121535667 0 0 0 0
189000000 0.011757273595208636 0.04119640189293599 -0.05208373968445774 -0.0011075049700402816 0 0 0 0
190000000 0.012321132940036728 0.04092672885772498 -0.05174808822795691 0.0015632952671379063 0 0 0 0
191000000 0.011988548651131267 0.04075997614473373 -0.05131530260547086 0.004445759474069482 0 0 0 0
192000000 0.011616965162309777 0.040836573679245855 -0.050698528588287585 0.007066919181504807 0 0 0 0
193000000 0.012068867168974998 0.04210737066773676 -0.04994377327523019 0.009668037481071994 0 0 0 0
194000000 0.012617725712135062 0.041693824072807605 -0.04921157116552007 0.012183116381077103 0 0 0 0
195000000 0.0120970154902026 0.04239498612184893 -0.04821482450742836 0.01470477374279377 0 0 0 0
196000000 0.012570320220797605 0.04217115101238943 -0.047178384501728524 0.017195961560581646 0 0 0 0
197000000 0.013444081338089798 0.04222629833777942 -0.046223368812641656 0.01942593355977335 0 0 0 0
