# HZ S RI R 50
1000000 -0.0004387869165010043 1.111764773802088e-05 0.047908546283447664 -0.003407982576846319 0 0 0 0
2000000 -0.0002822698944725425 0.0007757433442910027 0.04933438745295213 -0.004443268857271856 0 0 0 0
3000000 -0.00011737147364708086 0.0006455862834444586 0.0491011218859283 -0.006945946086571243 0 0 0 0
4000000 -0.00018480152376306976 0.0014795304798278007 0.04871221063640043 -0.009365932681159452 0 0 0 0
5000000 0.0004401881702413226 0.0018209796408490751 0.04805606434029704 -0.011703902152045203 0 0 0 0
6000000 0.0002576368560364936 0.0017491724525044024 0.04733063516327153 -0.013882852304505595 0 0 0 0
7000000 0.000380505229084702 0.0016705916685986943 0.046504051588393755 -0.01604322401218344 0 0 0 0
8000000 0.0003407918541781007 0.0023673622955746555 0.04570703244762062 -0.018111642835613274 0 0 0 0
9000000 0.0004243150868516252 0.00289164720097765 0.04478919755136526 -0.02019796610557785 0 0 0 0
10000000 0.0005560442201025511 0.0029764335024791535 0.04382322257689733 -0.022195241505693408 0 0 0 0
11000000 0.0003815786947881696 0.002996926776779328 0.042739254094186246 -0.024100020808269812 0 0 0 0
12000000 0.0005341942605355561 0.0033872049436301445 0.04158976142995533 -0.026106192991451966 0 0 0 0
13000000 0.0003429219670332825 0.0037324650856877923 0.04045437250023274 -0.028041611568777904 0 0 0 0
14000000 0.0007690729863382334 0.003816286193035459 0.039152483747896684 -0.029933320686014977 0 0 0 0
15000000 0.0006732068182558519 0.0037642334606055694 0.03771138591264762 -0.03174073722089405 0 0 0 0
16000000 0.000931318771945367 0.00396993132471875 0.036181320629371114 -0.03356442429124549 0 0 0 0
17000000 0.0008682382957499669 0.004788034259939805 0.03462800763642035 -0.03518556823937468 0 0 0 0
18000000 0.0011371020424896822 0.004583988532007666 0.03296576762654736 -0.03688026229503027 0 0 0 0
19000000 0.0009222526513096542 0.005144947880129117 0.03115230969188719 -0.03841239808037606 0 0 0 0
20000000 0.0010392817809296987 0.004714182866967445 0.02932772149465243 -0.039856709763511 0 0 0 0
21000000 0.0010291890851783683 0.0059843284818258645 0.027330316385800857 -0.04122022613496322 0 0 0 0
22000000 0.0015875912121616884 0.005499365663516902 0.02536183063663317 -0.04242848519951589 0 0 0 0
23000000 0.0005952012506263975 0.005825844410294449 0.02331422645911306 -0.04370207109884191 0 0 0 0
24000000 0.0015102174990928492 0.006535837701222819 0.0211573058906521 -0.0447055254796555 0 0 0 0
25000000 0.0010518562298720805 0.006348411515926456 0.0190618667456462 -0.04572299250093207 0 0 0 0
26000000 0.001725909913554649 0.006311733619899752 0.016882652758827943 -0.046575703622825974 0 0 0 0
27000000 0.0009974475382736572 0.006416663146522954 0.014609115459298293 -0.047265455510777286 0 0 0 0
28000000 0.0015693999175141386 0.006554390964729627 0.012236988833333426 -0.04797010890537889 0 0 0 0
29000000 0.0014077834901127862 0.007408691711345227 0.01001413615286729 -0.0485351541561226 0 0 0 0
30000000 0.001995744665731201 0.007301586352961144 0.007622768201561488 -0.048885681179558084 0 0 0 0
31000000 0.0014328060986586826 0.008107731741630654 0.005373800387860134 -0.04926126711076228 0 0 0 0
32000000 0.0016625807527896423 0.007567771353035693 0.0029087831393780727 -0.04939484575953425 0 0 0 0
33000000 0.00135837972739054 0.00809814159208583 0.0005908098773688661 -0.04946424847883692 0 0 0 0
34000000 0.0018708207134454414 0.008548531844280735 -0.0017186251759356553 -0.04947163856158032 0 0 0 0
35000000 0.0015613948490279857 0.008567557454637944 -0.004113874593748024 -0.04922883793506891 0 0 0 0
36000000 0.0023928117687309885 0.008612682568501355 -0.006490041378544185 -0.048998482953340354 0 0 0 0
37000000 0.0017511365726097488 0.008589797365966698 -0.008828125778878667 -0.048667980142911065 0 0 0 0
38000000 0.0022533268261450156 0.008791812556892573 -0.011109472845741231 -0.04810775138935159 0 0 0 0
39000000 0.00175452854224934 0.009142715182332423 -0.013432357498630646 -0.04750772091703346 0 0 0 0
40000000 0.0024211767181590658 0.009563887147583454 -0.015705282092384053 -0.0467715631173647 0 0 0 0
41000000 0.0028640936367902623 0.009427769165313286 -0.017940528259410515 -0.045916907115753365 0 0 0 0
42000000 0.0022862897576802132 0.010718931179040372 -0.020168828267167666 -0.04508624861666233 0 0 0 0
43000000 0.001955765778024813 0.009613410499293944 -0.022230542310097474 -0.044110140039137345 0 0 0 0
44000000 0.0024688996873984724 0.010719286706941182 -0.0242696106476553 -0.042962718335877274 0 0 0 0
45000000 0.0020685480859396754 0.010789384492112761 -0.026291572421381477 -0.0416759079894089 0 0 0 0
46000000 0.0020990188787616635 0.010912704888290343 -0.028269365611022425 -0.04036713688403746 0 0 0 0
47000000 0.002420074116378337 0.010728602352097168 -0.030137243152697814 -0.039026516079367954 0 0 0 0
48000000 0.002672626943277507 0.010955053093855404 -0.03192586657952323 -0.0375125429415412 0 0 0 0
49000000 0.0029062785036766325 0.011922492774629957 -0.033655362729675904 -0.03593582447381903 0 0 0 0
50000000 0.0033585774059253734 0.012162658836781911 -0.035389541824623116 -0.03421535282051496 0 0 0 0
51000000 0.0034973304188812746 0.011603765821260386 -0.03680499952322064 -0.03255767400596041 0 0 0 0
52000000 0.0033776567905961347 0.012272733121136824 -0.038384927020976393 -0.030752960766898388 0 0 0 0
53000000 0.00355202213508337 0.012519421121792065 -0.03981752649630172 -0.02887438812660995 0 0 0 0
54000000 0.0031859056251542397 0.012279654848072929 -0.041148854470633274 -0.026925007708712735 0 0 0 0
55000000 0.0032792464292089978 0.01315677810203886 -0.04236937719820723 -0.02500863046885686 0 0 0 0
56000000 0.00378259321128864 0.013110271966534233 -0.04354148780950487 -0.0228022082039593 0 0 0 0
57000000 0.004013319019191385 0.013580331882035529 -0.044480001525959684 -0.020795592816752858 0 0 0 0
58000000 0.004006326675319629 0.013611888753952212 -0.045471468377216065 -0.018606498105496867 0 0 0 0
59000000 0.004017395791529563 0.013646290086880198 -0.04627342651435353 -0.016377614634472328 0 0 0 0
60000000 0.0037279979042026267 0.014066115306843336 -0.04688584196405136 -0.01411758394140615 0 0 0 0
61000000 0.004184087181903366 0.014247926069382733 -0.04767557944274133 -0.01191509959534639 0 0 0 0
62000000 0.003996946354172654 0.014305934547040627 -0.047992767188226634 -0.009586601894738698 0 0 0 0
63000000 0.004028395047151526 0.014955119767811066 -0.04844686017594449 -0.007272622103154422 0 0 0 0
64000000 0.003701341457600324 0.015085060360806807 -0.04862484991161688 -0.004979979245707421 0 0 0 0
65000000 0.003983985420352545 0.014925012505371045 -0.04889121490252925 -0.0026777689395620667 0 0 0 0
66000000 0.0045219290083077165 0.015787306460543774 -0.04893074137683539 -0.0002916411966233786 0 0 0 0
67000000 0.00422658609902391 0.015703850424374256 -0.04878181490017423 0.0021018083754953073 0 0 0 0
68000000 0.004674083891235111 0.016004559040325134 -0.04859406355398529 0.0043479169287361326 0 0 0 0
69000000 0.004653289170759696 0.01646439521053761 -0.04838786485428157 0.006703190035774021 0 0 0 0
70000000 0.004608771222473261 0.016324099063498885 -0.04803061246304983 0.00899636584031495 0 0 0 0
71000000 0.004573605661880128 0.016478007873313886 -0.04735507818220557 0.011364016722221636 0 0 0 0
72000000 0.0045487919866987235 0.016818895698871777 -0.04682508297727267 0.013639450798980173 0 0 0 0
73000000 0.004529286214050881 0.01742931013001814 -0.046129553514320056 0.01572004025001763 0 0 0 0
74000000 0.004985965498339768 0.016169997868494438 -0.0450932941964073 0.018094439450888292 0 0 0 0
75000000 0.0049105854521069225 0.017498507794577508 -0.044298205106019575 0.020164712704385548 0 0 0 0
76000000 0.0047645814703357325 0.0179998361283091 -0.043153630894500174 0.022289347925092684 0 0 0 0
77000000 0.004778374047160091 0.018293970980612397 -0.04204851969739971 0.0243558556225062 0 0 0 0
78000000 0.005013595341764546 0.018425724910637112 -0.040784240097328235 0.026282491674170818 0 0 0 0
79000000 0.0051349312141082785 0.01838228458009381 -0.03947647626849643 0.028260393219270364 0 0 0 0
80000000 0.005529275218286653 0.018262125403204117 -0.03802013232130916 0.030143993312604086 0 0 0 0
81000000 0.005182350906998107 0.018782381652458643 -0.036548337373236206 0.031948018320422086 0 0 0 0
82000000 0.005537470775897729 0.01909657263062676 -0.034936646542613504 0.03362971772076808 0 0 0 0
83000000 0.005572734410091 0.019084161590640417 -0.03330794794771638 0.03521222083679413 0 0 0 0
84000000 0.005719533550138642 0.01986146699627014 -0.031370189220691305 0.03680823516447942 0 0 0 0
85000000 0.006245295974061317 0.019959233798319764 -0.0295935106979191 0.03832527326399415 0 0 0 0
86000000 0.006310371645591415 0.020324465954747937 -0.02764309995981915 0.03961919433490568 0 0 0 0
87000000 0.006536843203619669 0.020391088267514516 -0.02577126550480334 0.040906599682474544 0 0 0 0
88000000 0.006284498446281919 0.020796507175531494 -0.023799170396935486 0.04207689119848861 0 0 0 0
89000000 0.006254326828303181 0.020900719430296956 -0.02176913624046091 0.04320462356056957 0 0 0 0
90000000 0.0063791048163063845 0.021315539935689475 -0.01959436821082713 0.04418683841040447 0 0 0 0
91000000 0.0062452929215623225 0.021312415415709697 -0.017461888918964535 0.0449715978055803 0 0 0 0
92000000 0.006346487108088953 0.021633843117309044 -0.015240293762526624 0.045795788134189074 0 0 0 0
93000000 0.006593475087531414 0.02183270379318638 -0.01309115973403216 0.046478149594530685 0 0 0 0
94000000 0.006828837177390513 0.02180710895035798 -0.010814720783972822 0.04694857322087442 0 0 0 0
95000000 0.007084306393446449 0.022733004615655604 -0.008577371619129137 0.047410352378434516 0 0 0 0
96000000 0.0071043167337681646 0.02286980615277925 -0.006273393344612473 0.04769374004169778 0 0 0 0
97000000 0.00753299988598535 0.023251372536312303 -0.0038754504157484625 0.047866059324587186 0 0 0 0
98000000 0.0067489238066402715 0.022583813492744065 -0.001535924648845961 0.04797034624677892 0 0 0 0
99000000 0.007210666815450364 0.023870983538854744 0.0007295822109656719 0.04797227032015998 0 0 0 0
100000000 0.007399128462663037 0.023019272239915806 0.003202410946946517 0.04778960151755604 0 0 0 0
101000000 0.007349609598235751 0.023632497273220872 0.005447896496450866 0.04750498596066658 0 0 0 0
102000000 0.007675794017857307 0.024294304200485256 0.007887692795899362 0.04709052096310596 0 0 0 0
103000000 0.007123750830040072 0.02455105399349776 0.01011660266033276 0.046694875394179894 0 0 0 0
104000000 0.007639812395088584 0.024781706024229314 0.012490922874442145 0.04611340535630586 0 0 0 0
105000000 0.007408599291739048 0.024550990706301852 0.014553982849569354 0.04529264446186001 0 0 0 0
106000000 0.007790464241360232 0.02515358669032788 0.016817183688749997 0.044400966228677785 0 0 0 0
107000000 0.007907543878819766 0.025280210641304986 0.01892964108613272 0.04357689988714465 0 0 0 0
108000000 0.007648272142943996 0.02548393444694604 0.020986443127930757 0.042494680897565494 0 0 0 0
109000000 0.007665843554531358 0.026055339789999295 0.023008530798661702 0.041337007515673464 0 0 0 0
110000000 0.007649652303924847 0.02630955386484994 0.025025349954730443 0.040086663902280564 0 0 0 0
111000000 0.007953289521800275 0.026432546946791334 0.02687515927296155 0.03877292891677872 0 0 0 0
112000000 0.008161277527141608 0.026147613647632437 0.02869148671249585 0.03741915270072191 0 0 0 0
113000000 0.008011457409451897 0.02676582441351504 0.03049067394425864 0.035843772496068675 0 0 0 0
114000000 0.008182696661621438 0.027089615558654016 0.032173425811517296 0.0342808643958789 0 0 0 0
115000000 0.008323579899354328 0.027746717425384263 0.033725282193326156 0.03259240854391994 0 0 0 0
116000000 0.008075649027317803 0.02787365433422022 0.0353201812986783 0.030853602667913555 0 0 0 0
117000000 0.008266108471286181 0.02756429729241987 0.03667929003042418 0.02897682472103383 0 0 0 0
118000000 0.00799045143981312 0.02791174014598277 0.03815532315881447 0.02701192351105001 0 0 0 0
119000000 0.008434125577604586 0.028616106432394806 0.03923161738634481 0.025127130685967974 0 0 0 0
120000000 0.008559812860609466 0.028693159525384475 0.04039245053722786 0.023091705891058825 0 0 0 0
121000000 0.0083202329745865 0.029032565218700967 0.04135833780824408 0.020960632441999298 0 0 0 0
122000000 0.008309242956095624 0.02893507998609516 0.04242677700050193 0.01893373577185179 0 0 0 0
123000000 0.008775533709380482 0.028941377941307137 0.0431153505519227 0.016800769152610702 0 0 0 0
124000000 0.008825875421550331 0.029466332633373653 0.04382286902191596 0.014657780762550412 0 0 0 0
125000000 0.008600890988211006 0.030122728696516936 0.04440643572328306 0.012401814464765595 0 0 0 0
126000000 0.00881746725805089 0.030186568886404676 0.04486275868729389 0.01018762020532621 0 0 0 0
127000000 0.008132345963218868 0.030490571223355592 0.04515674758034114 0.007953718452111881 0 0 0 0
128000000 0.00873093036320801 0.03035871734216061 0.045473437095523615 0.005657258041117964 0 0 0 0
129000000 0.008867971768833863 0.031177154557664028 0.04562943629372109 0.0034439782382459233 0 0 0 0
130000000 0.008514089881291587 0.03149828060595701 0.045585997378660106 0.0011801095839423794 0 0 0 0
131000000 0.008723006963612502 0.031217349651451554 0.045455806428926125 -0.001176056197831288 0 0 0 0
132000000 0.009222255023901588 0.03145258094671509 0.0452471503821311 -0.003376163011993673 0 0 0 0
133000000 0.009321842636529892 0.03156000533263083 0.04497572717637243 -0.005660315851888596 0 0 0 0
134000000 0.00946627487562752 0.032293779022471214 0.04450137156069274 -0.0077873110677952675 0 0 0 0
135000000 0.0088299914382158 0.032556010290850014 0.0438821102426071 -0.009987183658271491 0 0 0 0
136000000 0.009228525189622224 0.03231863672944531 0.0432204943022173 -0.012145497874504188 0 0 0 0
137000000 0.008749296702478657 0.03268861023898597 0.04244209850520907 -0.014278355597516695 0 0 0 0
138000000 0.009345574308535498 0.032593874098769 0.04154066235359498 -0.016375979305576698 0 0 0 0
139000000 0.009676181880218963 0.03302028249334523 0.04061670341747959 -0.01829441331431616 0 0 0 0
140000000 0.009016280015205496 0.03331645010503526 0.03953006213006961 -0.020131754682606848 0 0 0 0
141000000 0.00886292853925315 0.03399609295545357 0.03819915611626984 -0.021945622908027276 0 0 0 0
142000000 0.00862014963308153 0.033242749174128096 0.03704856552850206 -0.023742740507736962 0 0 0 0
143000000 0.009522528120722103 0.033407157007012175 0.035608251437831064 -0.02564369484712686 0 0 0 0
144000000 0.009128625759601694 0.03402271668663626 0.03427980810775533 -0.027025798906636915 0 0 0 0
145000000 0.00874701916671557 0.034488180113066806 0.032702552836979766 -0.028818737125238726 0 0 0 0
146000000 0.009037787008003957 0.0340307834252313 0.03115021011260948 -0.030218690521901317 0 0 0 0
147000000 0.00912353758411518 0.03492866448467719 0.029479217393752272 -0.03183450217754662 0 0 0 0
148000000 0.009382219859810586 0.035453531324991294 0.027954922590865718 -0.032862076965493696 0 0 0 0
149000000 0.009321577442764326 0.035761396778274133 0.026046991343219344 -0.034169558782320544 0 0 0 0
150000000 0.009727571913084902 0.03556932038826748 0.0242042892751054 -0.03538230751523389 0 0 0 0
151000000 0.009581725570545908 0.035975140420292796 0.022298823978224833 -0.036500002937096425 0 0 0 0
152000000 0.00970903025738478 0.03651035377922915 0.020400137417287658 -0.03729443902070762 0 0 0 0
153000000 0.009446486694621023 0.03589759200236865 0.01842757136374176 -0.038065303882955766 0 0 0 0
154000000 0.009555114886444623 0.03645616125426793 0.016437933442863432 -0.03877701449023503 0 0 0 0
155000000 0.010080404455860758 0.03661331670517026 0.014542670063096924 -0.039574366223282136 0 0 0 0
156000000 0.009752523685670315 0.036800064664402936 0.012444078285893004 -0.04001263698549648 0 0 0 0
157000000 0.010382128194568614 0.038223637490763296 0.010484406625064191 -0.040463562362959574 0 0 0 0
158000000 0.01025869840498724 0.03699456077277608 0.00828672811132976 -0.04067313255064898 0 0 0 0
159000000 0.009198222437284003 0.037831528164353014 0.0063769184228005945 -0.04077155661625606 0 0 0 0
160000000 0.009401934043985883 0.03683123556690367 0.004216529336097956 -0.04097357160288559 0 0 0 0
161000000 0.010093309506193797 0.0377487999046248 0.0022100375059157097 -0.04098303528166672 0 0 0 0
162000000 0.009950233234837713 0.03825526610011924 8.374465372209255e-05 -0.040883761003440315 0 0 0 0
163000000 0.009827810015424687 0.03883072868489667 -0.0019093398011176465 -0.04054343648350009 0 0 0 0
164000000 0.009935561818161923 0.038728577506513144 -0.0037435322247246134 -0.040429816055658915 0 0 0 0
165000000 0.010715589764571336 0.03870869390258335 -0.005659320758961408 -0.039864172930392926 0 0 0 0
166000000 0.01064537094195787 0.039257243030276744 -0.007827993290598198 -0.03925274871128119 0 0 0 0
167000000 0.010888389819433675 0.03868842593221209 -0.009531994362455071 -0.038872713691495184 0 0 0 0
168000000 0.010800389283119547 0.03872953413891675 -0.011567798422122617 -0.037983563616176705 0 0 0 0
169000000 0.009699801189081009 0.03943994621968708 -0.013268703219409634 -0.037182965913619706 0 0 0 0
170000000 0.010718730374974783 0.03960779998477443 -0.014970815025030967 -0.03627989103606902 0 0 0 0
171000000 0.010367888875425637 0.040024373017509794 -0.016876454574499714 -0.03539609724175644 0 0 0 0
172000000 0.010549546106212698 0.04150464237145774 -0.018373826143953446 -0.034405632533764434 0 0 0 0
173000000 0.010177588128817973 0.04040708901965361 -0.019845371710679162 -0.033361910494915825 0 0 0 0
174000000 0.010833671942519614 0.04046946666683599 -0.021445070872063203 -0.03202607529262776 0 0 0 0
175000000 0.010466408847566484 0.0405939259849208 -0.02295396753729216 -0.030690480014922354 0 0 0 0
176000000 0.01076003690098629 0.04161163270460231 -0.024184367167937766 -0.029590201412594948 0 0 0 0
177000000 0.010748129660592229 0.041403190543527854 -0.025573922663816227 -0.02824952144522666 0 0 0 0
178000000 0.011040150584210318 0.04172143851471826 -0.026664496861425697 -0.02661427427896408 0 0 0 0
179000000 0.010547655459837893 0.04139501678790977 -0.027875061788841384 -0.025313850794661037 0 0 0 0
180000000 0.011066820579868018 0.041815463958749535 -0.02891331665866342 -0.023724123895128284 0 0 0 0
181000000 0.011228323257148275 0.042128138678515246 -0.029983798499471952 -0.02203514781195326 0 0 0 0
182000000 0.011299585993334346 0.04265023604437934 -0.030820204749586754 -0.020669793269141208 0 0 0 0
183000000 0.011168663909444824 0.04251360870188285 -0.03174520766441578 -0.018866345664082965 0 0 0 0
184000000 0.010512257435194312 0.04306288194441066 -0.03219622384877331 -0.01728597254130434 0 0 0 0
185000000 0.010514509133394108 0.043129750908693865 -0.032804698358416644 -0.015558273847245166 0 0 0 0
186000000 0.011316189084151164 0.0436575198877177 -0.03348989400553417 -0.013862745446625566 0 0 0 0
187000000 0.010909643507162418 0.04311859317792042 -0.03389937692635891 -0.011977048714871756 0 0 0 0
188000000 0.01156977814262221 0.043149634682772955 -0.03428438156112513 -0.010460714929403757 0 0 0 0
189000000 0.010809028593805777 0.04400977070919961 -0.03467567907389502 -0.008634800478354262 0 0 0 0
190000000 0.011231478430346978 0.04368724406463628 -0.03458130845457656 -0.007076032494096883 0 0 0 0
191000000 0.011172829129752836 0.04385041795783938 -0.034669116176932746 -0.005203191220725615 0 0 0 0
192000000 0.011725490841978745 0.04451129697487738 -0.034800049988991826 -0.003572541305966339 0 0 0 0
193000000 0.011831056458403466 0.044446465251097106 -0.03472083180885667 -0.0018099260853620368 0 0 0 0
194000000 0.011845647036684335 0.04523643395512132 -0.03465918326413206 -2.677612187400037e-05 0 0 0 0
195000000 0.011377133621992011 0.045146707493943096 -0.03428824853017511 0.0015410445967641608 0 0 0 0
196000000 0.011678188905663701 0.04507674471221627 -0.03413207780275692 0.0032998865141349973 0 0 0 0
